Vg,Id,Is,Ig,Vd,Rt,Ib,I_handle
0,-3.1E-12,1.2E-12,-8.54E-12,0.05,-16129032258.0645,,
0.02,-6.67E-12,-1.211E-11,-5.547E-11,0.05,-7496251874.06297,,
0.04,-3.52E-12,-1.686E-11,5.54E-12,0.05,-14204545454.5455,,
0.06,-7.55E-12,-7.94E-12,3.318E-11,0.05,-6622516556.29139,,
0.08,2.54E-12,-5.14E-12,5.741E-11,0.05,19685039370.0787,,
0.1,3.69E-12,-1.904E-11,1.397E-11,0.05,13550135501.355,,
0.12,-6.67E-12,-1.523E-11,-2.44E-11,0.05,-7496251874.06297,,
0.14,-4.62E-12,-1.903E-11,-4.28E-12,0.05,-10822510822.5108,,
0.16,-1.134E-11,-5.75E-12,1.331E-11,0.05,-4409171075.83774,,
0.18,5.73E-12,-1.416E-11,7.014E-11,0.05,8726003490.4014,,
0.2,-3.02E-12,-8.69E-12,2.442E-11,0.05,-16556291390.7285,,
0.22,2.13E-12,-2.227E-11,2.2E-12,0.05,23474178403.7559,,
0.24,-9.68E-12,-2.189E-11,-4.562E-11,0.05,-5165289256.19835,,
0.26,-9.38E-12,-1.874E-11,2.115E-11,0.05,-5330490405.11727,,
0.28,-7.34E-12,-1.576E-11,5.076E-11,0.05,-6811989100.81744,,
0.3,-1.59E-12,-1.119E-11,5.899E-11,0.05,-31446540880.5031,,
0.32,1.71E-12,-2.722E-11,2.517E-11,0.05,29239766081.8713,,
0.34,-1.02E-11,-2.039E-11,-2.075E-11,0.05,-4901960784.31373,,
0.36,-4.33E-12,-2.707E-11,1.365E-11,0.05,-11547344110.8545,,
0.38,-1.245E-11,-1.269E-11,3.233E-11,0.05,-4016064257.02811,,
0.4,4.26E-12,-2.029E-11,8.087E-11,0.05,11737089201.8779,,
0.42,-3.16E-12,-1.605E-11,2.649E-11,0.05,-15822784810.1266,,
0.44,1.35E-12,-2.741E-11,5.53E-12,0.05,37037037037.037,,
0.46,-1.033E-11,-2.927E-11,-3.687E-11,0.05,-4840271055.17909,,
0.48,-1.146E-11,-2.523E-11,2.509E-11,0.05,-4363001745.2007,,
0.5,-6.79E-12,-2.129E-11,5.895E-11,0.05,-7363770250.36819,,
0.52,-2.52E-12,-1.763E-11,5.92E-11,0.05,-19841269841.2698,,
0.54,7.2E-13,-3.197E-11,2.505E-11,0.05,69444444444.4444,,
0.56,-1.165E-11,-2.506E-11,-1.555E-11,0.05,-4291845493.56223,,
0.58,-5.32E-12,-3.106E-11,1.404E-11,0.05,-9398496240.6015,,
0.6,-1.111E-11,-1.76E-11,3.259E-11,0.05,-4500450045.0045,,
0.62,3.09E-12,-2.39E-11,8.956E-11,0.05,16181229773.4628,,
0.64,-3.56E-12,-1.969E-11,3.622E-11,0.05,-14044943820.2247,,
0.66,3.02E-12,-3.227E-11,1.282E-11,0.05,16556291390.7285,,
0.68,-1.014E-11,-3.506E-11,-2.817E-11,0.05,-4930966469.42801,,
0.7,-1.114E-11,-2.924E-11,3.661E-11,0.05,-4488330341.11311,,
0.72,-8.01E-12,-2.779E-11,6.627E-11,0.05,-6242197253.43321,,
0.74,-1.33E-12,-2.309E-11,6.207E-11,0.05,-37593984962.406,,
0.76,1.91E-12,-3.77E-11,2.777E-11,0.05,26178010471.2042,,
0.78,-1.088E-11,-3.275E-11,-2.177E-11,0.05,-4595588235.29412,,
0.8,-2.85E-12,-3.836E-11,1.886E-11,0.05,-17543859649.1228,,
0.82,-9.31E-12,-2.403E-11,3.171E-11,0.05,-5370569280.34372,,
0.84,5.41E-12,-2.9E-11,9.446E-11,0.05,9242144177.44917,,
0.86,-2.9E-12,-2.512E-11,4.085E-11,0.05,-17241379310.3448,,
0.88,6.74E-12,-3.803E-11,2.417E-11,0.05,7418397626.11276,,
0.9,-9.29E-12,-3.883E-11,-2.597E-11,0.05,-5382131324.00431,,
0.92,-4.58E-12,-3.508E-11,3.689E-11,0.05,-10917030567.6856,,
0.94,-7.05E-12,-3.303E-11,6.676E-11,0.05,-7092198581.56028,,
0.96,-3.4E-13,-2.913E-11,6.698E-11,0.05,-147058823529.412,,
0.98,6.25E-12,-4.191E-11,3.171E-11,0.05,8000000000,,
1,-6.77E-12,-3.775E-11,-7.04E-12,0.05,-7385524372.23043,,
1.02,-1.59E-12,-4.395E-11,2.516E-11,0.05,-31446540880.5031,,
1.04,-7.17E-12,-3.439E-11,6.149E-11,0.05,-6973500697.35007,,
1.06,4.29E-12,-3.324E-11,8.932E-11,0.05,11655011655.0117,,
1.08,5.2E-12,-4.795E-11,3.086E-11,0.05,9615384615.38461,,
1.1,-1.69E-12,-4.658E-11,2.44E-12,0.05,-29585798816.568,,
1.12,-7.23E-12,-3.367E-11,3.658E-11,0.05,-6915629322.26833,,
1.14,5.68E-12,-4.079E-11,9.969E-11,0.05,8802816901.40845,,
1.16,1.92E-12,-3.309E-11,4.349E-11,0.05,26041666666.6667,,
1.18,1.088E-11,-5.042E-11,2.047E-11,0.05,4595588235.29412,,
1.2,-1.12E-12,-4.888E-11,-2.499E-11,0.05,-44642857142.8571,,
1.22,-3.57E-12,-4.548E-11,4.085E-11,0.05,-14005602240.8964,,
1.24,-3.48E-12,-4.38E-11,6.983E-11,0.05,-14367816091.954,,
1.26,5.7E-12,-3.817E-11,7.529E-11,0.05,8771929824.5614,,
1.28,9.97E-12,-5.3E-11,4.054E-11,0.05,5015045135.40622,,
1.3,-2.17E-12,-4.947E-11,-4.97E-12,0.05,-23041474654.3779,,
1.32,3.96E-12,-5.502E-11,3.236E-11,0.05,12626262626.2626,,
1.34,-2.44E-12,-4.233E-11,5.296E-11,0.05,-20491803278.6885,,
1.36,1.165E-11,-4.396E-11,1.0356E-10,0.05,4291845493.56223,,
1.38,8.48E-12,-4.323E-11,4.283E-11,0.05,5896226415.09434,,
1.4,1.119E-11,-5.287E-11,1.757E-11,0.05,4468275245.75514,,
1.42,2.35E-12,-5.646E-11,-6.73E-12,0.05,21276595744.6809,,
1.44,-1.8E-13,-4.793E-11,4.024E-11,0.05,-277777777777.778,,
1.46,8.29E-12,-5.086E-11,8.357E-11,0.05,6031363088.0579,,
1.48,1.03E-11,-4.505E-11,6.727E-11,0.05,4854368932.03883,,
1.5,1.407E-11,-6.311E-11,4.273E-11,0.05,3553660270.07818,,
1.52,2E-13,-5.801E-11,-1.548E-11,0.05,250000000000,,
1.54,9.31E-12,-6.368E-11,4.584E-11,0.05,5370569280.34372,,
1.56,3.55E-12,-5.125E-11,5.979E-11,0.05,14084507042.2535,,
1.58,1.871E-11,-5.166E-11,1.075E-10,0.05,2672367717.79797,,
1.6,1.572E-11,-5.435E-11,4.726E-11,0.05,3180661577.60814,,
1.62,1.7E-11,-6.104E-11,2.153E-11,0.05,2941176470.58823,,
1.64,9.68E-12,-6.742E-11,3.49E-12,0.05,5165289256.19835,,
1.66,7.91E-12,-5.56E-11,5.161E-11,0.05,6321112515.80278,,
1.68,1.731E-11,-6.12E-11,8.829E-11,0.05,2888503755.05488,,
1.7,1.872E-11,-5.781E-11,5.936E-11,0.05,2670940170.94017,,
1.72,2.237E-11,-7.261E-11,4.444E-11,0.05,2235136343.31694,,
1.74,8.72E-12,-6.729E-11,-1.695E-11,0.05,5733944954.12844,,
1.76,1.552E-11,-7.374E-11,4.147E-11,0.05,3221649484.53608,,
1.78,1.134E-11,-6.219E-11,6.443E-11,0.05,4409171075.83774,,
1.8,2.342E-11,-6.293E-11,1.0174E-10,0.05,2134927412.46798,,
1.82,2.443E-11,-6.823E-11,4.873E-11,0.05,2046663937.78142,,
1.84,2.19E-11,-7.261E-11,2.067E-11,0.05,2283105022.83105,,
1.86,1.867E-11,-7.868E-11,1.812E-11,0.05,2678093197.64328,,
1.88,1.653E-11,-6.447E-11,4.828E-11,0.05,3024803387.77979,,
1.9,3.006E-11,-7.298E-11,1.0328E-10,0.05,1663339986.69328,,
1.92,2.709E-11,-6.742E-11,5.913E-11,0.05,1845699520.11812,,
1.94,3.301E-11,-8.443E-11,4.023E-11,0.05,1514692517.41896,,
1.96,1.869E-11,-8.295E-11,-1.736E-11,0.05,2675227394.32852,,
1.98,2.557E-11,-8.68E-11,4.154E-11,0.05,1955416503.71529,,
2,2.219E-11,-7.648E-11,6.853E-11,0.05,2253267237.49437,,
2.02,3.357E-11,-7.659E-11,9.864E-11,0.05,1489425081.91838,,
2.04,3.79E-11,-8.417E-11,4.932E-11,0.05,1319261213.72032,,
2.06,3.404E-11,-8.58E-11,1.499E-11,0.05,1468860164.51234,,
2.08,3.107E-11,-9.135E-11,2.139E-11,0.05,1609269391.69617,,
2.1,2.956E-11,-7.637E-11,5.255E-11,0.05,1691474966.1705,,
2.12,4.345E-11,-8.63E-11,1.0421E-10,0.05,1150747986.19102,,
2.14,3.852E-11,-8.168E-11,5.707E-11,0.05,1298026998.96158,,
2.16,4.566E-11,-9.841E-11,4.344E-11,0.05,1095050372.31713,,
2.18,3.301E-11,-9.829E-11,-8.83E-12,0.05,1514692517.41896,,
2.2,3.671E-11,-1.0115E-10,4.917E-11,0.05,1362026695.72324,,
2.22,3.674E-11,-9.332E-11,7.737E-11,0.05,1360914534.56723,,
2.24,5.005E-11,-9.159E-11,1.0098E-10,0.05,999000999.000999,,
2.26,5.251E-11,-1.0346E-10,5.316E-11,0.05,952199581.032184,,
2.28,4.517E-11,-1.0291E-10,1.341E-11,0.05,1106929377.90569,,
2.3,4.718E-11,-1.0928E-10,3.247E-11,0.05,1059771089.44468,,
2.32,4.537E-11,-9.502E-11,5.344E-11,0.05,1102049812.65153,,
2.34,6.096E-11,-1.0509E-10,1.1014E-10,0.05,820209973.753281,,
2.36,5.487E-11,-9.965E-11,6.227E-11,0.05,911244760.342628,,
2.38,6.478E-11,-1.1479E-10,3.808E-11,0.05,771843161.469589,,
2.4,5.113E-11,-1.1745E-10,-5.2E-12,0.05,977899471.934285,,
2.42,5.345E-11,-1.1312E-10,5.404E-11,0.05,935453695.042095,,
2.44,5.625E-11,-1.1231E-10,8.864E-11,0.05,888888888.888889,,
2.46,6.591E-11,-1.0984E-10,8.574E-11,0.05,758610226.065847,,
2.48,7.16E-11,-1.2917E-10,5.382E-11,0.05,698324022.346369,,
2.5,5.758E-11,-1.2391E-10,4.29E-12,0.05,868357068.426537,,
2.52,6.711E-11,-1.3249E-10,4.203E-11,0.05,745045447.772314,,
2.54,6.428E-11,-1.1709E-10,6.09E-11,0.05,777846919.726198,,
2.56,8.074E-11,-1.2565E-10,1.1644E-10,0.05,619271736.437949,,
2.58,7.906E-11,-1.2339E-10,6.132E-11,0.05,632431065.013913,,
2.6,8.467E-11,-1.3788E-10,3.596E-11,0.05,590527931.971182,,
2.62,7.546E-11,-1.4293E-10,2.61E-12,0.05,662602703.41903,,
2.64,7.469E-11,-1.3813E-10,5.374E-11,0.05,669433659.124381,,
2.66,8.226E-11,-1.3886E-10,9.297E-11,0.05,607828835.399951,,
2.68,8.747E-11,-1.3523E-10,8.77E-11,0.05,571624556.990968,,
2.7,9.316E-11,-1.5537E-10,5.547E-11,0.05,536711034.778875,,
2.72,8.233E-11,-1.4853E-10,9.49E-12,0.05,607312036.924572,,
2.74,9.108E-11,-1.5867E-10,4.922E-11,0.05,548967940.272288,,
2.76,8.66E-11,-1.4348E-10,6.2E-11,0.05,577367205.542725,,
2.78,1.0674E-10,-1.5291E-10,1.1831E-10,0.05,468427955.780401,,
2.8,1.0181E-10,-1.5026E-10,6.319E-11,0.05,491110892.839603,,
2.82,1.0992E-10,-1.6737E-10,4.057E-11,0.05,454876273.653566,,
2.84,1.0073E-10,-1.7123E-10,3.32E-12,0.05,496376451.901122,,
2.86,1.0253E-10,-1.6967E-10,5.89E-11,0.05,487662147.664098,,
2.88,1.0759E-10,-1.6725E-10,9.26E-11,0.05,464727205.130588,,
2.9,1.1721E-10,-1.6545E-10,9.989E-11,0.05,426584762.392287,,
2.92,1.2457E-10,-1.8487E-10,5.844E-11,0.05,401380749.779241,,
2.94,1.1266E-10,-1.811E-10,1.742E-11,0.05,443813243.387183,,
2.96,1.2121E-10,-1.8979E-10,4.076E-11,0.05,412507218.87633,,
2.98,1.1909E-10,-1.7508E-10,6.32E-11,0.05,419850533.210177,,
3,1.384E-10,-1.8675E-10,1.181E-10,0.05,361271676.300578,,
3.02,1.3319E-10,-1.8471E-10,6.578E-11,0.05,375403558.825738,,
3.04,1.4317E-10,-2.0271E-10,4.465E-11,0.05,349235174.966823,,
3.06,1.3094E-10,-2.0543E-10,-5.8E-13,0.05,381854284.405071,,
3.08,1.3675E-10,-2.0743E-10,6.077E-11,0.05,365630712.97989,,
3.1,1.461E-10,-2.0554E-10,9.826E-11,0.05,342231348.391513,,
3.12,1.5168E-10,-2.0208E-10,9.316E-11,0.05,329641350.21097,,
3.14,1.5992E-10,-2.2583E-10,6.621E-11,0.05,312656328.164082,,
3.16,1.4662E-10,-2.1965E-10,1.108E-11,0.05,341017596.50798,,
3.18,1.5995E-10,-2.3027E-10,5.038E-11,0.05,312597686.777118,,
3.2,1.5658E-10,-2.1749E-10,6.612E-11,0.05,319325584.365819,,
3.22,1.7645E-10,-2.2607E-10,1.226E-10,0.05,283366392.74582,,
3.24,1.7668E-10,-2.2907E-10,6.689E-11,0.05,282997509.621915,,
3.26,1.8211E-10,-2.4339E-10,3.403E-11,0.05,274559332.271704,,
3.28,1.7522E-10,-2.487E-10,1.341E-11,0.05,285355553.019062,,
3.3,1.7672E-10,-2.4301E-10,6.417E-11,0.05,282933454.051607,,
3.32,1.8746E-10,-2.4825E-10,9.786E-11,0.05,266723567.694441,,
3.34,1.9587E-10,-2.4756E-10,9.395E-11,0.05,255271353.448716,,
3.36,2.0151E-10,-2.7086E-10,6.098E-11,0.05,248126643.839015,,
3.38,1.8953E-10,-2.6762E-10,6.45E-12,0.05,263810478.552208,,
3.4,2.0141E-10,-2.7702E-10,5.689E-11,0.05,248249838.637605,,
3.42,1.9839E-10,-2.6811E-10,7.627E-11,0.05,252028832.098392,,
3.44,2.2085E-10,-2.7176E-10,1.235E-10,0.05,226398007.697532,,
3.46,2.2447E-10,-2.8237E-10,6.621E-11,0.05,222746914.955228,,
3.48,2.1923E-10,-2.8936E-10,2.625E-11,0.05,228070975.687634,,
3.5,2.2515E-10,-3.0061E-10,3.715E-11,0.05,222074172.773706,,
3.52,2.2567E-10,-2.8719E-10,6.372E-11,0.05,221562458.457039,,
3.54,2.4617E-10,-3.0351E-10,1.1287E-10,0.05,203111670.796604,,
3.56,2.4517E-10,-2.9895E-10,7.603E-11,0.05,203940123.179834,,
3.58,2.5518E-10,-3.2209E-10,5.514E-11,0.05,195940120.699114,,
3.6,2.4212E-10,-3.2422E-10,6.79E-12,0.05,206509169.007104,,
3.62,2.5358E-10,-3.2935E-10,6.268E-11,0.05,197176433.472671,,
3.64,2.5544E-10,-3.2451E-10,9.004E-11,0.05,195740682.743501,,
3.66,2.7312E-10,-3.2756E-10,1.1879E-10,0.05,183069712.94669,,
3.68,2.8184E-10,-3.471E-10,6.618E-11,0.05,177405620.210048,,
3.7,2.741E-10,-3.4868E-10,2.539E-11,0.05,182415176.942722,,
3.72,2.8194E-10,-3.6034E-10,3.892E-11,0.05,177342697.027736,,
3.74,2.8418E-10,-3.4837E-10,6.827E-11,0.05,175944823.703287,,
3.76,3.0665E-10,-3.6358E-10,1.2013E-10,0.05,163052339.801076,,
3.78,3.1128E-10,-3.7809E-10,6.674E-11,0.05,160627088.152146,,
3.8,3.0444E-10,-3.7941E-10,3.074E-11,0.05,164235974.247799,,
3.82,3.1424E-10,-3.9186E-10,4.435E-11,0.05,159114052.953157,,
3.84,3.1537E-10,-3.8002E-10,7.043E-11,0.05,158543932.523702,,
3.86,3.3968E-10,-3.944E-10,1.2169E-10,0.05,147197362.223269,,
3.88,3.3822E-10,-3.95E-10,7.191E-11,0.05,147832771.568801,,
3.9,3.4672E-10,-4.1317E-10,4.309E-11,0.05,144208583.294878,,
3.92,3.445E-10,-4.2586E-10,2.246E-11,0.05,145137880.986938,,
3.94,3.4723E-10,-4.1631E-10,6.786E-11,0.05,143996774.472252,,
3.96,3.6815E-10,-4.2959E-10,1.1057E-10,0.05,135814206.165965,,
3.98,3.7131E-10,-4.3248E-10,8.8E-11,0.05,134658371.710969,,
4,3.8414E-10,-4.5842E-10,6.428E-11,0.05,130160878.846254,,
4.02,3.7446E-10,-4.5855E-10,1.44E-11,0.05,133525610.212039,,
4.04,3.9038E-10,-4.7083E-10,6.144E-11,0.05,128080331.98422,,
4.06,3.9174E-10,-4.6598E-10,8.625E-11,0.05,127635676.724358,,
4.08,4.1578E-10,-4.7171E-10,1.2889E-10,0.05,120255904.564914,,
4.1,4.2376E-10,-4.8792E-10,6.999E-11,0.05,117991315.839154,,
4.12,4.2599E-10,-4.9629E-10,3.508E-11,0.05,117373647.268715,,
4.14,4.2968E-10,-5.1099E-10,3.451E-11,0.05,116365667.473469,,
4.16,4.3469E-10,-5.0095E-10,6.624E-11,0.05,115024500.218547,,
4.18,4.5825E-10,-5.1808E-10,1.2882E-10,0.05,109110747.40862,,
4.2,4.6325E-10,-5.2296E-10,7.497E-11,0.05,107933081.489477,,
4.22,4.7517E-10,-5.4548E-10,5.088E-11,0.05,105225498.242734,,
4.24,4.6969E-10,-5.5522E-10,8.49E-12,0.05,106453192.531244,,
4.26,4.8189E-10,-5.5866E-10,7.015E-11,0.05,103758119.072817,,
4.28,4.9346E-10,-5.6632E-10,1.0597E-10,0.05,101325335.38686,,
4.3,5.0863E-10,-5.6985E-10,1.0902E-10,0.05,98303285.2957946,,
4.32,5.2392E-10,-5.9857E-10,7.06E-11,0.05,95434417.4683158,,
4.34,5.1782E-10,-6.0063E-10,2.183E-11,0.05,96558649.7238422,,
4.36,5.3506E-10,-6.1811E-10,5.697E-11,0.05,93447463.8358315,,
4.38,5.3571E-10,-6.1061E-10,7.853E-11,0.05,93334080.0059734,,
4.4,5.6975E-10,-6.2679E-10,1.4113E-10,0.05,87757788.5037297,,
4.42,5.7568E-10,-6.3622E-10,7.758E-11,0.05,86853807.6709283,,
4.44,5.8841E-10,-6.5916E-10,5.328E-11,0.05,84974762.4955388,,
4.46,5.8924E-10,-6.7299E-10,2.058E-11,0.05,84855067.5446338,,
4.48,5.9899E-10,-6.7423E-10,7.31E-11,0.05,83473847.6435333,,
4.5,6.1665E-10,-6.8783E-10,1.0878E-10,0.05,81083272.5208789,,
4.52,6.3064E-10,-6.9486E-10,1.0214E-10,0.05,79284536.3440315,,
4.54,6.4904E-10,-7.2754E-10,7.263E-11,0.05,77036854.4311599,,
4.56,6.4389E-10,-7.3029E-10,2.45E-11,0.05,77653015.2665828,,
4.58,6.6723E-10,-7.5063E-10,5.928E-11,0.05,74936678.5066619,,
4.6,6.7315E-10,-7.4553E-10,7.984E-11,0.05,74277649.8551586,,
4.62,7.0533E-10,-7.6562E-10,1.3359E-10,0.05,70888803.8223243,,
4.64,7.1321E-10,-7.7792E-10,8.265E-11,0.05,70105579.001977,,
4.66,7.3179E-10,-8.0507E-10,5.601E-11,0.05,68325612.5391164,,
4.68,7.325E-10,-8.2098E-10,1.877E-11,0.05,68259385.665529,,
4.7,7.4886E-10,-8.2867E-10,7.477E-11,0.05,66768154.2611436,,
4.72,7.6751E-10,-8.4212E-10,1.078E-10,0.05,65145731.0002476,,
4.74,7.8859E-10,-8.5077E-10,8.733E-11,0.05,63404303.8841477,,
4.76,8.0672E-10,-8.8566E-10,6.136E-11,0.05,61979373.2645775,,
4.78,8.0939E-10,-8.9814E-10,1.409E-11,0.05,61774916.9127368,,
4.8,8.3065E-10,-9.1649E-10,6.998E-11,0.05,60193824.1136459,,
4.82,8.4515E-10,-9.2403E-10,9.821E-11,0.05,59161095.6634917,,
4.84,8.7489E-10,-9.3761E-10,1.2616E-10,0.05,57150041.7195305,,
4.86,8.7081E-10,-9.5523E-10,1.3218E-10,0.05,57417806.4101239,,
4.88,8.9707E-10,-9.716E-10,6.892E-11,0.05,55737010.4897054,,
4.9,9.3787E-10,-9.941E-10,1.2225E-10,0.05,53312292.7484619,,
4.92,9.5602E-10,-1.0307E-09,7.215E-11,0.05,52300161.0844961,,
4.94,9.5934E-10,-1.0432E-09,2.641E-11,0.05,52119165.2594492,,
4.96,9.8693E-10,-1.0715E-09,6.199E-11,0.05,50662154.3574519,,
4.98,1.00077E-09,-1.0787E-09,9.305E-11,0.05,49961529.6221909,,
5,1.03624E-09,-1.0979E-09,1.271E-10,0.05,48251370.3389176,,
5.02,1.05752E-09,-1.1366E-09,7.614E-11,0.05,47280429.684545,,
5.04,1.06436E-09,-1.1519E-09,2.56E-11,0.05,46976586.8691044,,
5.06,1.09693E-09,-1.1829E-09,6.897E-11,0.05,45581760.0029172,,
5.08,1.11092E-09,-1.191E-09,9.312E-11,0.05,45007741.331509,,
5.1,1.15004E-09,-1.2123E-09,1.2375E-10,0.05,43476748.6348301,,
5.12,1.1667E-09,-1.252E-09,3.679E-11,0.05,42855918.4023314,,
5.14,1.1915E-09,-1.2599E-09,7.742E-11,0.05,41963911.0365086,,
5.16,1.2329E-09,-1.2919E-09,1.3744E-10,0.05,40554789.5206424,,
5.18,1.2545E-09,-1.331E-09,7.512E-11,0.05,39856516.5404544,,
5.2,1.266E-09,-1.3517E-09,2.606E-11,0.05,39494470.7740916,,
5.22,1.3026E-09,-1.3869E-09,7.201E-11,0.05,38384768.9236911,,
5.24,1.3241E-09,-1.4042E-09,1.063E-10,0.05,37761498.3762556,,
5.26,1.3625E-09,-1.4296E-09,1.0341E-10,0.05,36697247.706422,,
5.28,1.3941E-09,-1.4757E-09,6.851E-11,0.05,35865432.8957751,,
5.3,1.4096E-09,-1.5046E-09,1.912E-11,0.05,35471055.6186152,,
5.32,1.4427E-09,-1.5194E-09,7.527E-11,0.05,34657239.8974146,,
5.34,1.4914E-09,-1.5582E-09,1.2694E-10,0.05,33525546.4664074,,
5.36,1.5217E-09,-1.6022E-09,7.877E-11,0.05,32857987.7768286,,
5.38,1.5341E-09,-1.6257E-09,2.451E-11,0.05,32592399.4524477,,
5.4,1.576E-09,-1.664E-09,7.266E-11,0.05,31725888.3248731,,
5.42,1.611E-09,-1.6897E-09,1.1139E-10,0.05,31036623.2153942,,
5.44,1.6523E-09,-1.7216E-09,9.514E-11,0.05,30260848.5141923,,
5.46,1.6939E-09,-1.7737E-09,6.519E-11,0.05,29517681.0909735,,
5.48,1.7182E-09,-1.8107E-09,2.711E-11,0.05,29100221.1616808,,
5.5,1.7552E-09,-1.8314E-09,7.952E-11,0.05,28486782.1330903,,
5.52,1.812E-09,-1.8791E-09,1.3796E-10,0.05,27593818.9845475,,
5.54,1.844E-09,-1.9195E-09,7.973E-11,0.05,27114967.462039,,
5.56,1.8773E-09,-1.9635E-09,4.034E-11,0.05,26633995.6320247,,
5.58,1.9212E-09,-2.012E-09,6.76E-11,0.05,26025400.7911722,,
5.6,1.9587E-09,-2.0415E-09,1.0188E-10,0.05,25527135.3448716,,
5.62,2.0109E-09,-2.0798E-09,1.2112E-10,0.05,24864488.5374708,,
5.64,2.0607E-09,-2.1461E-09,7.969E-11,0.05,24263599.7476586,,
5.66,2.0873E-09,-2.1853E-09,2.112E-11,0.05,23954390.8398409,,
5.68,2.1403E-09,-2.2266E-09,7.96E-11,0.05,23361211.0451806,,
5.7,2.1982E-09,-2.2723E-09,1.2727E-10,0.05,22745882.9951779,,
5.72,2.2404E-09,-2.3144E-09,8.495E-11,0.05,22317443.313694,,
5.74,2.2961E-09,-2.3761E-09,5.226E-11,0.05,21776055.0498672,,
5.76,2.3379E-09,-2.4311E-09,5.201E-11,0.05,21386714.5729073,,
5.78,2.3847E-09,-2.464E-09,8.977E-11,0.05,20966997.9452342,,
5.8,2.4477E-09,-2.5185E-09,1.1986E-10,0.05,20427339.9517915,,
5.82,2.5073E-09,-2.5952E-09,8.033E-11,0.05,19941770.031508,,
5.84,2.5468E-09,-2.6447E-09,1.98E-11,0.05,19632479.9748704,,
5.86,2.6087E-09,-2.6968E-09,8.124E-11,0.05,19166634.7222755,,
5.88,2.6757E-09,-2.7517E-09,1.2416E-10,0.05,18686698.8077886,,
5.9,2.7317E-09,-2.8048E-09,9.069E-11,0.05,18303620.4561262,,
5.92,2.798E-09,-2.8784E-09,5.726E-11,0.05,17869907.0764832,,
5.94,2.8496E-09,-2.9438E-09,4.59E-11,0.05,17546322.2908478,,
5.96,2.9082E-09,-2.987E-09,8.77E-11,0.05,17192765.2843683,,
5.98,2.9882E-09,-3.0553E-09,1.4266E-10,0.05,16732481.0922964,,
6,3.0518E-09,-3.1346E-09,8.334E-11,0.05,16383773.510715,,
6.02,3.1024E-09,-3.1948E-09,3.32E-11,0.05,16116554.9252192,,
6.04,3.1761E-09,-3.2721E-09,7.813E-11,0.05,15742577.3747678,,
6.06,3.2523E-09,-3.3326E-09,1.2894E-10,0.05,15373735.5102543,,
6.08,3.3204E-09,-3.3963E-09,9.37E-11,0.05,15058426.6955788,,
6.1,3.4021E-09,-3.4835E-09,6.376E-11,0.05,14696804.9146116,,
6.12,3.4656E-09,-3.5614E-09,5.122E-11,0.05,14427516.1588181,,
6.14,3.5402E-09,-3.6225E-09,9.15E-11,0.05,14123495.8476922,,
6.16,3.6314E-09,-3.7028E-09,1.4273E-10,0.05,13768794.404362,,
6.18,3.7115E-09,-3.7989E-09,8.538E-11,0.05,13471642.1931833,,
6.2,3.7758E-09,-3.8722E-09,3.347E-11,0.05,13242226.8128609,,
6.22,3.8675E-09,-3.9634E-09,8.087E-11,0.05,12928248.2223659,,
6.24,3.951E-09,-4.0349E-09,1.1928E-10,0.05,12655024.0445457,,
6.26,4.0394E-09,-4.116E-09,1.0457E-10,0.05,12378075.951874,,
6.28,4.1369E-09,-4.2234E-09,7.378E-11,0.05,12086344.8475912,,
6.3,4.2127E-09,-4.3126E-09,3.296E-11,0.05,11868872.6944715,,
6.32,4.3054E-09,-4.3871E-09,8.623E-11,0.05,11613322.8039207,,
6.34,4.4134E-09,-4.4827E-09,1.4333E-10,0.05,11329134.000997,,
6.36,4.5009E-09,-4.578E-09,8.81E-11,0.05,11108889.3332445,,
6.38,4.5936E-09,-4.6833E-09,5.035E-11,0.05,10884709.1605712,,
6.4,4.6904E-09,-4.7909E-09,7.125E-11,0.05,10660071.6356814,,
6.42,4.7901E-09,-4.8785E-09,1.0233E-10,0.05,10438195.4447715,,
6.44,4.9051E-09,-4.9788E-09,9.426E-11,0.05,10193472.1004669,,
6.46,5.0097E-09,-5.0957E-09,5.99E-11,0.05,9980637.56312753,,
6.48,5.1094E-09,-5.2134E-09,5.898E-11,0.05,9785884.83970721,,
6.5,5.2153E-09,-5.3039E-09,9.505E-11,0.05,9587176.19312408,,
6.52,5.3433E-09,-5.4148E-09,1.4372E-10,0.05,9357513.14730597,,
6.54,5.4527E-09,-5.544E-09,8.784E-11,0.05,9169769.10521393,,
