Vg,Id,Is,Ig,Vd,Rt,Ib,I_handle
0,4.5424E-07,-4.5424E-07,-4.287E-11,0.05,110073.969707644,,
0.02,4.5914E-07,-4.591E-07,-5.455E-11,0.05,108899.246417215,,
0.04,4.6406E-07,-4.6398E-07,-4.995E-11,0.05,107744.688186872,,
0.06,4.6892E-07,-4.6896E-07,-1.349E-11,0.05,106627.996246695,,
0.08,4.7392E-07,-4.7394E-07,1.342E-11,0.05,105503.038487508,,
0.1,4.7894E-07,-4.7886E-07,1.92E-11,0.05,104397.210506535,,
0.12,4.841E-07,-4.8406E-07,7.64E-12,0.05,103284.445362528,,
0.14,4.8928E-07,-4.8922E-07,3.62E-12,0.05,102190.974493133,,
0.16,4.9448E-07,-4.9446E-07,8.8E-12,0.05,101116.324219382,,
0.18,4.998E-07,-4.9978E-07,1.908E-11,0.05,100040.016006403,,
0.2,5.053E-07,-5.053E-07,3.489E-11,0.05,98951.1181476351,,
0.22,5.1088E-07,-5.108E-07,4.848E-11,0.05,97870.3413717507,,
0.24,5.1644E-07,-5.1636E-07,6.141E-11,0.05,96816.6679575556,,
0.26,5.2198E-07,-5.2198E-07,5.871E-11,0.05,95789.1106938963,,
0.28,5.2782E-07,-5.2776E-07,2.924E-11,0.05,94729.263764162,,
0.3,5.3382E-07,-5.3368E-07,-1.59E-12,0.05,93664.5311153572,,
0.32,5.3982E-07,-5.3984E-07,-4.68E-12,0.05,92623.4670816198,,
0.34,5.4592E-07,-5.46E-07,5.08E-12,0.05,91588.511137163,,
0.36,5.523E-07,-5.5226E-07,9.24E-12,0.05,90530.5087814594,,
0.38,5.5864E-07,-5.5862E-07,9.91E-12,0.05,89503.0789059144,,
0.4,5.6518E-07,-5.6516E-07,-3.66E-12,0.05,88467.390919707,,
0.42,5.7192E-07,-5.7178E-07,-1.461E-11,0.05,87424.8146593929,,
0.44,5.7852E-07,-5.7838E-07,-3.266E-11,0.05,86427.4355251331,,
0.46,5.8554E-07,-5.8544E-07,-3.915E-11,0.05,85391.2627659938,,
0.48,5.9246E-07,-5.9242E-07,-3.881E-11,0.05,84393.8831313506,,
0.5,5.9964E-07,-5.9958E-07,2.466E-11,0.05,83383.3633513441,,
0.52,6.0696E-07,-6.0682E-07,2.208E-11,0.05,82377.7514168973,,
0.54,6.1428E-07,-6.1412E-07,1.829E-11,0.05,81396.1060102885,,
0.56,6.2166E-07,-6.2156E-07,1.084E-11,0.05,80429.8169417366,,
0.58,6.294E-07,-6.2932E-07,1.416E-11,0.05,79440.7372100413,,
0.6,6.3732E-07,-6.3722E-07,3.084E-11,0.05,78453.524132304,,
0.62,6.4514E-07,-6.4512E-07,4.964E-11,0.05,77502.5575844003,,
0.64,6.5318E-07,-6.5308E-07,5.824E-11,0.05,76548.5777274258,,
0.66,6.615E-07,-6.6132E-07,6.996E-11,0.05,75585.7898715042,,
0.68,6.6978E-07,-6.6962E-07,6.834E-11,0.05,74651.3780644391,,
0.7,6.7834E-07,-6.782E-07,3.614E-11,0.05,73709.3492938644,,
0.72,6.869E-07,-6.8694E-07,1.071E-11,0.05,72790.7992429757,,
0.74,6.9578E-07,-6.9578E-07,3.91E-12,0.05,71861.7953950962,,
0.76,7.0474E-07,-7.0476E-07,1.363E-11,0.05,70948.1510911826,,
0.78,7.139E-07,-7.138E-07,1.427E-11,0.05,70037.8204230284,,
0.8,7.2316E-07,-7.2316E-07,1.293E-11,0.05,69140.9923115217,,
0.82,7.327E-07,-7.325E-07,4.3E-13,0.05,68240.7533779173,,
0.84,7.4226E-07,-7.4208E-07,-1.517E-11,0.05,67361.8408643871,,
0.86,7.5204E-07,-7.5196E-07,-2.394E-11,0.05,66485.8252220627,,
0.88,7.6198E-07,-7.6184E-07,-3.532E-11,0.05,65618.5201711331,,
0.9,7.7202E-07,-7.7196E-07,-3.292E-11,0.05,64765.1615243128,,
0.92,7.8232E-07,-7.821E-07,-5.17E-12,0.05,63912.4654872686,,
0.94,7.9272E-07,-7.9268E-07,3.196E-11,0.05,63073.973155717,,
0.96,8.0344E-07,-8.0322E-07,3.253E-11,0.05,62232.4006770885,,
0.98,8.1392E-07,-8.1388E-07,2.35E-11,0.05,61431.0988794968,,
1,8.2476E-07,-8.2474E-07,2.226E-11,0.05,60623.6965905233,,
1.02,8.3538E-07,-8.3528E-07,2.379E-11,0.05,59853.0010294716,,
1.04,8.4652E-07,-8.4644E-07,3.519E-11,0.05,59065.3499031328,,
1.06,8.5788E-07,-8.578E-07,5.2E-11,0.05,58283.2097729286,,
1.08,8.6928E-07,-8.6916E-07,5.948E-11,0.05,57518.8661881097,,
1.1,8.8082E-07,-8.8062E-07,7.35E-11,0.05,56765.28689176,,
1.12,8.9256E-07,-8.9238E-07,7.836E-11,0.05,56018.6430043919,,
1.14,9.0432E-07,-9.0424E-07,9.19E-12,0.05,55290.1627742392,,
1.16,9.1622E-07,-9.161E-07,1.77E-11,0.05,54572.0460151492,,
1.18,9.2822E-07,-9.2814E-07,2.198E-11,0.05,53866.5402598522,,
1.2,9.4024E-07,-9.4016E-07,2.229E-11,0.05,53177.9120224624,,
1.22,9.5252E-07,-9.5236E-07,4.45E-12,0.05,52492.3361189266,,
1.24,9.6472E-07,-9.6458E-07,-8.96E-12,0.05,51828.5098266855,,
1.26,9.7698E-07,-9.7686E-07,-2.074E-11,0.05,51178.1203299965,,
1.28,9.8946E-07,-9.8912E-07,-3.319E-11,0.05,50532.6137489136,,
1.3,1.0017E-06,-1.00164E-06,-2.031E-11,0.05,49915.1442547669,,
1.32,1.0143E-06,-1.01414E-06,1.15E-11,0.05,49295.080350981,,
1.34,1.027E-06,-1.02682E-06,3.638E-11,0.05,48685.4917234664,,
1.36,1.03982E-06,-1.03956E-06,3.079E-11,0.05,48085.2455232636,,
1.38,1.05242E-06,-1.05226E-06,2.239E-11,0.05,47509.5494194333,,
1.4,1.06514E-06,-1.06494E-06,2.391E-11,0.05,46942.1860037178,,
1.42,1.07798E-06,-1.07794E-06,2.519E-11,0.05,46383.049778289,,
1.44,1.09092E-06,-1.09078E-06,3.986E-11,0.05,45832.8750045833,,
1.46,1.10376E-06,-1.1037E-06,5.166E-11,0.05,45299.7028339494,,
1.48,1.11686E-06,-1.11682E-06,6.095E-11,0.05,44768.3684615798,,
1.5,1.12992E-06,-1.12972E-06,7.243E-11,0.05,44250.9204191447,,
1.52,1.14296E-06,-1.14288E-06,7.45E-11,0.05,43746.0628543431,,
1.54,1.1547E-06,-1.159E-06,6.962E-11,0.05,43301.2903784533,,
1.56,1.1678E-06,-1.1723E-06,5.224E-11,0.05,42815.5506079808,,
1.58,1.1808E-06,-1.1852E-06,9.2E-12,0.05,42344.1734417344,,
1.6,1.194E-06,-1.1986E-06,2.408E-11,0.05,41876.0469011725,,
1.62,1.2075E-06,-1.2119E-06,-3.67E-12,0.05,41407.867494824,,
1.64,1.2206E-06,-1.225E-06,-2.491E-11,0.05,40963.4605931509,,
1.66,1.234E-06,-1.2384E-06,1.53E-11,0.05,40518.6385737439,,
1.68,1.2473E-06,-1.2516E-06,3.267E-11,0.05,40086.5870279804,,
1.7,1.2607E-06,-1.2651E-06,2.847E-11,0.05,39660.5060680574,,
1.72,1.274E-06,-1.2785E-06,5.516E-11,0.05,39246.4678178964,,
1.74,1.2872E-06,-1.2919E-06,7.858E-11,0.05,38844.0024860162,,
1.76,1.3004E-06,-1.3049E-06,3.196E-11,0.05,38449.7077822209,,
1.78,1.3138E-06,-1.3186E-06,2.39E-11,0.05,38057.5430050236,,
1.8,1.3274E-06,-1.3317E-06,2.24E-11,0.05,37667.6209130631,,
1.82,1.341E-06,-1.3453E-06,-9.13E-12,0.05,37285.6077554064,,
1.84,1.3544E-06,-1.3589E-06,-2.828E-11,0.05,36916.7158889545,,
1.86,1.3679E-06,-1.3725E-06,2.87E-11,0.05,36552.3795599094,,
1.88,1.3813E-06,-1.3858E-06,3.322E-11,0.05,36197.7846955766,,
1.9,1.3948E-06,-1.3995E-06,3.318E-11,0.05,35847.433323774,,
1.92,1.4085E-06,-1.4132E-06,6.637E-11,0.05,35498.757543486,,
1.94,1.4222E-06,-1.4266E-06,8.454E-11,0.05,35156.7993249895,,
1.96,1.4357E-06,-1.4406E-06,2.126E-11,0.05,34826.2171762903,,
1.98,1.4492E-06,-1.4541E-06,3.038E-11,0.05,34501.7940932928,,
2,1.4629E-06,-1.4677E-06,1.584E-11,0.05,34178.6861713036,,
2.02,1.4767E-06,-1.4811E-06,-9.2E-12,0.05,33859.2808288752,,
2.04,1.4904E-06,-1.4949E-06,-1.795E-11,0.05,33548.0407944176,,
2.06,1.5043E-06,-1.5087E-06,4.526E-11,0.05,33238.050920694,,
2.08,1.5176E-06,-1.5223E-06,3.191E-11,0.05,32946.758039009,,
2.1,1.5311E-06,-1.5359E-06,4.179E-11,0.05,32656.2602050813,,
2.12,1.545E-06,-1.5495E-06,6.782E-11,0.05,32362.4595469256,,
2.14,1.5587E-06,-1.5632E-06,7.521E-11,0.05,32078.0137293899,,
2.16,1.5723E-06,-1.5772E-06,1.729E-11,0.05,31800.5469694079,,
2.18,1.5861E-06,-1.5906E-06,3.01E-11,0.05,31523.8635647185,,
2.2,1.5999E-06,-1.6044E-06,-6.25E-12,0.05,31251.9532470779,,
2.22,1.6136E-06,-1.618E-06,2.07E-11,0.05,30986.6137828458,,
2.24,1.6272E-06,-1.6316E-06,3.976E-11,0.05,30727.6302851524,,
2.26,1.6409E-06,-1.6454E-06,3.399E-11,0.05,30471.0829422878,,
2.28,1.6544E-06,-1.6591E-06,6.597E-11,0.05,30222.4371373308,,
2.3,1.6681E-06,-1.6728E-06,8.693E-11,0.05,29974.2221689347,,
2.32,1.682E-06,-1.6866E-06,3.428E-11,0.05,29726.5160523187,,
2.34,1.6956E-06,-1.7002E-06,2.363E-11,0.05,29488.0868129276,,
2.36,1.7095E-06,-1.7141E-06,2.595E-11,0.05,29248.3182217023,,
2.38,1.7233E-06,-1.728E-06,-4.96E-12,0.05,29014.1008530146,,
2.4,1.7369E-06,-1.7417E-06,-2.299E-11,0.05,28786.9192239047,,
2.42,1.7506E-06,-1.7551E-06,3.222E-11,0.05,28561.6360105107,,
2.44,1.7641E-06,-1.7687E-06,3.487E-11,0.05,28343.0644521286,,
2.46,1.7782E-06,-1.7827E-06,3.688E-11,0.05,28118.3218985491,,
2.48,1.7916E-06,-1.7964E-06,6.952E-11,0.05,27908.0151819603,,
2.5,1.8056E-06,-1.8102E-06,8.561E-11,0.05,27691.6260522818,,
2.52,1.8186E-06,-1.8234E-06,2.402E-11,0.05,27493.6764544155,,
2.54,1.8326E-06,-1.8371E-06,2.916E-11,0.05,27283.6407290189,,
2.56,1.8461E-06,-1.8507E-06,2.373E-11,0.05,27084.1232869292,,
2.58,1.8598E-06,-1.8643E-06,-6.03E-12,0.05,26884.6112485213,,
2.6,1.8734E-06,-1.8778E-06,-1.827E-11,0.05,26689.4416568805,,
2.62,1.8871E-06,-1.8917E-06,4.223E-11,0.05,26495.6812039638,,
2.64,1.9008E-06,-1.9052E-06,3.221E-11,0.05,26304.7138047138,,
2.66,1.9144E-06,-1.9188E-06,4.476E-11,0.05,26117.8437108232,,
2.68,1.9279E-06,-1.9324E-06,7.858E-11,0.05,25934.9551325276,,
2.7,1.9418E-06,-1.9464E-06,6.485E-11,0.05,25749.3047687712,,
2.72,1.9553E-06,-1.9602E-06,1.77E-11,0.05,25571.5235513732,,
2.74,1.9692E-06,-1.9737E-06,3.028E-11,0.05,25391.0217347146,,
2.76,1.9827E-06,-1.9872E-06,1.754E-11,0.05,25218.136884047,,
2.78,1.9964E-06,-2.0009E-06,-8.39E-12,0.05,25045.0811460629,,
2.8,2.0097E-06,-2.0144E-06,4.6E-13,0.05,24879.3352241628,,
2.82,2.0236E-06,-2.028E-06,4.95E-11,0.05,24708.4404032417,,
2.84,2.0371E-06,-2.0412E-06,3.735E-11,0.05,24544.6958912179,,
2.86,2.0506E-06,-2.0554E-06,5.508E-11,0.05,24383.1073832049,,
2.88,2.0642E-06,-2.0686E-06,8.232E-11,0.05,24222.4590640442,,
2.9,2.0779E-06,-2.0825E-06,5.329E-11,0.05,24062.755666779,,
2.92,2.0913E-06,-2.0959E-06,2.496E-11,0.05,23908.5736144982,,
2.94,2.1047E-06,-2.1095E-06,3.217E-11,0.05,23756.3548249157,,
2.96,2.1186E-06,-2.1229E-06,-3.7E-13,0.05,23600.4908902105,,
2.98,2.1318E-06,-2.1366E-06,-1.615E-11,0.05,23454.3578196829,,
3,2.1453E-06,-2.15E-06,2.636E-11,0.05,23306.7636228033,,
3.02,2.159E-06,-2.1634E-06,4.483E-11,0.05,23158.8698471515,,
3.04,2.1724E-06,-2.1766E-06,4.16E-11,0.05,23016.0191493279,,
3.06,2.1854E-06,-2.1904E-06,7.136E-11,0.05,22879.1067996705,,
3.08,2.1993E-06,-2.2038E-06,9.047E-11,0.05,22734.5064338653,,
3.1,2.2127E-06,-2.2174E-06,3.39E-11,0.05,22596.8274054323,,
3.12,2.226E-06,-2.231E-06,3.063E-11,0.05,22461.8149146451,,
3.14,2.2395E-06,-2.2439E-06,2.678E-11,0.05,22326.4121455682,,
3.16,2.2531E-06,-2.2576E-06,-3.6E-13,0.05,22191.6470640451,,
3.18,2.2664E-06,-2.2713E-06,-2.088E-11,0.05,22061.4189904695,,
3.2,2.279E-06,-2.2838E-06,3.855E-11,0.05,21939.4471259324,,
3.22,2.293E-06,-2.2973E-06,3.383E-11,0.05,21805.4949847362,,
3.24,2.3058E-06,-2.3107E-06,4.243E-11,0.05,21684.4479139561,,
3.26,2.3193E-06,-2.3239E-06,6.987E-11,0.05,21558.2287759238,,
3.28,2.3328E-06,-2.3372E-06,9.393E-11,0.05,21433.4705075446,,
3.3,2.3462E-06,-2.3504E-06,3.016E-11,0.05,21311.0561759441,,
3.32,2.3593E-06,-2.3638E-06,3.545E-11,0.05,21192.7266562116,,
3.34,2.3725E-06,-2.3773E-06,3.235E-11,0.05,21074.8155953635,,
3.36,2.3862E-06,-2.3904E-06,1.62E-12,0.05,20953.8177856005,,
3.38,2.3992E-06,-2.4037E-06,-2.172E-11,0.05,20840.2800933645,,
3.4,2.4124E-06,-2.4169E-06,4.702E-11,0.05,20726.2477201127,,
3.42,2.4252E-06,-2.4302E-06,3.604E-11,0.05,20616.856341745,,
3.44,2.4386E-06,-2.4433E-06,4.342E-11,0.05,20503.567620766,,
3.46,2.452E-06,-2.4567E-06,6.921E-11,0.05,20391.5171288744,,
3.48,2.4653E-06,-2.4699E-06,8.86E-11,0.05,20281.5073216241,,
3.5,2.4783E-06,-2.483E-06,2.983E-11,0.05,20175.1200419643,,
3.52,2.4912E-06,-2.4958E-06,8.11E-12,0.05,20070.6486833654,,
3.54,2.5044E-06,-2.5086E-06,-8.66E-12,0.05,19964.861843156,,
3.56,2.5173E-06,-2.5215E-06,2.393E-11,0.05,19862.5511460692,,
3.58,2.5303E-06,-2.535E-06,4.812E-11,0.05,19760.5027071889,,
3.6,2.5431E-06,-2.5478E-06,4.152E-11,0.05,19661.0436081947,,
3.62,2.5565E-06,-2.5609E-06,6.856E-11,0.05,19557.9894386857,,
3.64,2.5694E-06,-2.5739E-06,9.572E-11,0.05,19459.7960613373,,
3.66,2.583E-06,-2.587E-06,3.328E-11,0.05,19357.3364305072,,
3.68,2.5956E-06,-2.6003E-06,3.442E-11,0.05,19263.3687779319,,
3.7,2.6084E-06,-2.6133E-06,3.035E-11,0.05,19168.839135102,,
3.72,2.6218E-06,-2.626E-06,2.97E-12,0.05,19070.8673430468,,
3.74,2.6348E-06,-2.6389E-06,-1.911E-11,0.05,18976.772430545,,
3.76,2.6474E-06,-2.6519E-06,5.83E-11,0.05,18886.454634736,,
3.78,2.6601E-06,-2.6646E-06,4.517E-11,0.05,18796.2858539153,,
3.8,2.6732E-06,-2.6776E-06,6.056E-11,0.05,18704.1747718091,,
3.82,2.6858E-06,-2.6904E-06,9.35E-11,0.05,18616.4271353042,,
3.84,2.6983E-06,-2.7033E-06,6.361E-11,0.05,18530.1856724604,,
3.86,2.7113E-06,-2.7161E-06,2.327E-11,0.05,18441.3381034928,,
3.88,2.7241E-06,-2.7287E-06,3.781E-11,0.05,18354.6859513234,,
3.9,2.737E-06,-2.7416E-06,4.81E-12,0.05,18268.1768359518,,
3.92,2.7496E-06,-2.7544E-06,-1.167E-11,0.05,18184.4631946465,,
3.94,2.7625E-06,-2.767E-06,2.481E-11,0.05,18099.5475113122,,
3.96,2.7751E-06,-2.7795E-06,4.053E-11,0.05,18017.3687434687,,
3.98,2.7878E-06,-2.7921E-06,4.399E-11,0.05,17935.2894755721,,
4,2.8003E-06,-2.805E-06,7.197E-11,0.05,17855.2297968075,,
4.02,2.8133E-06,-2.8178E-06,9.694E-11,0.05,17772.7224256212,,
4.04,2.826E-06,-2.8306E-06,4.901E-11,0.05,17692.8520877565,,
4.06,2.8387E-06,-2.8432E-06,3.505E-11,0.05,17613.6964103287,,
4.08,2.8511E-06,-2.856E-06,3.813E-11,0.05,17537.0909473537,,
4.1,2.8642E-06,-2.8685E-06,6.3E-13,0.05,17456.8815026884,,
4.12,2.8765E-06,-2.8813E-06,-1.471E-11,0.05,17382.2353554667,,
4.14,2.8886E-06,-2.8929E-06,4.53E-11,0.05,17309.4232500173,,
4.16,2.901E-06,-2.9051E-06,3.109E-11,0.05,17235.4360565322,,
4.18,2.9135E-06,-2.9179E-06,5.767E-11,0.05,17161.4896172988,,
4.2,2.926E-06,-2.9308E-06,8.01E-11,0.05,17088.1749829118,,
4.22,2.9387E-06,-2.9432E-06,8.074E-11,0.05,17014.3260625447,,
4.24,2.9512E-06,-2.9555E-06,2.006E-11,0.05,16942.2607752779,,
4.26,2.9638E-06,-2.9682E-06,5.108E-11,0.05,16870.2341588501,,
4.28,2.9762E-06,-2.9807E-06,2.222E-11,0.05,16799.946240172,,
4.3,2.9886E-06,-2.9929E-06,-1.159E-11,0.05,16730.2415846885,,
4.32,3.0011E-06,-3.0054E-06,1.083E-11,0.05,16660.557795475,,
4.34,3.0128E-06,-3.0175E-06,4.966E-11,0.05,16595.8576739246,,
4.36,3.0255E-06,-3.0294E-06,4.027E-11,0.05,16526.1940175178,,
4.38,3.0379E-06,-3.0422E-06,6.675E-11,0.05,16458.7379439745,,
4.4,3.0504E-06,-3.0543E-06,7.984E-11,0.05,16391.2929451875,,
4.42,3.0622E-06,-3.067E-06,7.419E-11,0.05,16328.1301025407,,
4.44,3.0749E-06,-3.0794E-06,2.488E-11,0.05,16260.6914045985,,
4.46,3.0867E-06,-3.091E-06,4.376E-11,0.05,16198.529173551,,
4.48,3.0991E-06,-3.1033E-06,1.67E-11,0.05,16133.7162401988,,
4.5,3.111E-06,-3.1155E-06,-1.268E-11,0.05,16072.0025715204,,
4.52,3.1234E-06,-3.1278E-06,5.314E-11,0.05,16008.1961964526,,
4.54,3.1353E-06,-3.1396E-06,4.019E-11,0.05,15947.4372468344,,
4.56,3.1471E-06,-3.1518E-06,5.172E-11,0.05,15887.6425915923,,
4.58,3.1595E-06,-3.1639E-06,7.405E-11,0.05,15825.2888115208,,
4.6,3.1715E-06,-3.1759E-06,9.786E-11,0.05,15765.4106889484,,
4.62,3.1835E-06,-3.1881E-06,3.981E-11,0.05,15705.9839798963,,
4.64,3.1956E-06,-3.2004E-06,3.251E-11,0.05,15646.5139566904,,
4.66,3.208E-06,-3.2126E-06,3.79E-11,0.05,15586.0349127182,,
4.68,3.2199E-06,-3.2241E-06,-7.17E-12,0.05,15528.4325600174,,
4.7,3.2318E-06,-3.2362E-06,-6.64E-12,0.05,15471.2544093075,,
4.72,3.244E-06,-3.2481E-06,6.332E-11,0.05,15413.0702836005,,
4.74,3.2553E-06,-3.2599E-06,5.367E-11,0.05,15359.5674745799,,
4.76,3.2672E-06,-3.2713E-06,6.844E-11,0.05,15303.6238981391,,
4.78,3.2785E-06,-3.2833E-06,8.069E-11,0.05,15250.8769254232,,
4.8,3.2905E-06,-3.2953E-06,7.79E-11,0.05,15195.2590791673,,
4.82,3.3027E-06,-3.3071E-06,9.012E-11,0.05,15139.1285917583,,
4.84,3.3147E-06,-3.3192E-06,2.332E-11,0.05,15084.3213563822,,
4.86,3.3267E-06,-3.3311E-06,3.542E-11,0.05,15029.9095199447,,
4.88,3.3381E-06,-3.3426E-06,3.039E-11,0.05,14978.5806296995,,
4.9,3.3504E-06,-3.3543E-06,-3.29E-12,0.05,14923.5912129895,,
4.92,3.362E-06,-3.3659E-06,7.47E-12,0.05,14872.0999405116,,
4.94,3.3736E-06,-3.3777E-06,4.827E-11,0.05,14820.9627697415,,
4.96,3.3854E-06,-3.3893E-06,4.333E-11,0.05,14769.3034796479,,
4.98,3.3965E-06,-3.4012E-06,6.836E-11,0.05,14721.0363609598,,
5,3.4087E-06,-3.4128E-06,8.621E-11,0.05,14668.3486373104,,
5.02,3.4199E-06,-3.4246E-06,7.528E-11,0.05,14620.3105353958,,
5.04,3.432E-06,-3.4365E-06,3.454E-11,0.05,14568.7645687646,,
5.06,3.4439E-06,-3.4482E-06,3.768E-11,0.05,14518.4238799036,,
5.08,3.455E-06,-3.4589E-06,-6.27E-12,0.05,14471.7800289436,,
5.1,3.4665E-06,-3.4704E-06,2.446E-11,0.05,14423.7703735757,,
5.12,3.478E-06,-3.4822E-06,5.024E-11,0.05,14376.0782058654,,
5.14,3.4893E-06,-3.4936E-06,4.402E-11,0.05,14329.5216805663,,
5.16,3.5012E-06,-3.5051E-06,7.127E-11,0.05,14280.8180052553,,
5.18,3.5126E-06,-3.5167E-06,9.075E-11,0.05,14234.4701930194,,
5.2,3.524E-06,-3.5282E-06,3.778E-11,0.05,14188.4222474461,,
5.22,3.5357E-06,-3.54E-06,3.888E-11,0.05,14141.4712786718,,
5.24,3.547E-06,-3.5509E-06,3.835E-11,0.05,14096.4195094446,,
5.26,3.5585E-06,-3.5626E-06,1.011E-11,0.05,14050.8641281439,,
5.28,3.5701E-06,-3.5742E-06,-1.063E-11,0.05,14005.209938097,,
5.3,3.5811E-06,-3.5855E-06,5.313E-11,0.05,13962.1903884281,,
5.32,3.5922E-06,-3.597E-06,4.825E-11,0.05,13919.0468236735,,
5.34,3.6035E-06,-3.6081E-06,7.622E-11,0.05,13875.3989177189,,
5.36,3.6149E-06,-3.6194E-06,9.435E-11,0.05,13831.6412625522,,
5.38,3.626E-06,-3.6301E-06,3.625E-11,0.05,13789.2995035852,,
5.4,3.6372E-06,-3.6416E-06,3.433E-11,0.05,13746.8382272077,,
5.42,3.6484E-06,-3.6529E-06,3.47E-11,0.05,13704.6376493805,,
5.44,3.6597E-06,-3.6641E-06,-1.98E-12,0.05,13662.3220482553,,
5.46,3.6709E-06,-3.6752E-06,-1.161E-11,0.05,13620.6379906835,,
5.48,3.682E-06,-3.6865E-06,5.683E-11,0.05,13579.5763172189,,
5.5,3.6931E-06,-3.6974E-06,4.767E-11,0.05,13538.7614741003,,
5.52,3.704E-06,-3.7086E-06,6.101E-11,0.05,13498.9200863931,,
5.54,3.7155E-06,-3.7196E-06,8.35E-11,0.05,13457.139012246,,
5.56,3.7267E-06,-3.7312E-06,9.482E-11,0.05,13416.6957361741,,
5.58,3.7375E-06,-3.742E-06,2.991E-11,0.05,13377.9264214047,,
5.6,3.7489E-06,-3.7532E-06,3.974E-11,0.05,13337.2455920403,,
5.62,3.76E-06,-3.7646E-06,2.82E-11,0.05,13297.8723404255,,
5.64,3.7709E-06,-3.7756E-06,-4.32E-12,0.05,13259.4340873532,,
5.66,3.7823E-06,-3.7865E-06,-8.73E-12,0.05,13219.4696348782,,
5.68,3.7932E-06,-3.7972E-06,5.604E-11,0.05,13181.4826531688,,
5.7,3.8036E-06,-3.808E-06,4.285E-11,0.05,13145.4411610054,,
5.72,3.8148E-06,-3.8187E-06,6.009E-11,0.05,13106.8470168816,,
5.74,3.8254E-06,-3.8299E-06,8.741E-11,0.05,13070.5285721755,,
5.76,3.8367E-06,-3.8412E-06,9.138E-11,0.05,13032.0327364662,,
5.78,3.8471E-06,-3.8519E-06,3.727E-11,0.05,12996.8027865145,,
5.8,3.8583E-06,-3.8628E-06,4.096E-11,0.05,12959.0752403908,,
5.82,3.869E-06,-3.8737E-06,2.608E-11,0.05,12923.235978289,,
5.84,3.8799E-06,-3.8844E-06,-4.14E-12,0.05,12886.9300755174,,
5.86,3.8906E-06,-3.8953E-06,9.67E-12,0.05,12851.4882023338,,
5.88,3.9017E-06,-3.9056E-06,5.254E-11,0.05,12814.9268267678,,
5.9,3.9123E-06,-3.9164E-06,3.239E-11,0.05,12780.206016921,,
5.92,3.9228E-06,-3.9271E-06,6.363E-11,0.05,12745.9977567044,,
5.94,3.9339E-06,-3.9381E-06,8.851E-11,0.05,12710.0333002872,,
5.96,3.9449E-06,-3.9491E-06,6.876E-11,0.05,12674.5925118507,,
5.98,3.9553E-06,-3.9602E-06,3.236E-11,0.05,12641.2661492175,,
6,3.9665E-06,-3.971E-06,3.728E-11,0.05,12605.5716626749,,
6.02,3.9763E-06,-3.9807E-06,1.262E-11,0.05,12574.5039358197,,
6.04,3.9873E-06,-3.9914E-06,-1.11E-11,0.05,12539.8139091616,,
6.06,3.9979E-06,-4.0021E-06,5.789E-11,0.05,12506.5659471222,,
6.08,4.008E-06,-4.0125E-06,4.967E-11,0.05,12475.0499001996,,
6.1,4.0186E-06,-4.0236E-06,5.445E-11,0.05,12442.1440302593,,
6.12,4.0292E-06,-4.0338E-06,8.25E-11,0.05,12409.411297528,,
6.14,4.0398E-06,-4.0442E-06,9.363E-11,0.05,12376.8503391257,,
6.16,4.0508E-06,-4.0551E-06,3.513E-11,0.05,12343.2408413153,,
6.18,4.0612E-06,-4.0656E-06,4.024E-11,0.05,12311.6320299419,,
6.2,4.0721E-06,-4.0762E-06,1.935E-11,0.05,12278.6768497827,,
6.22,4.0824E-06,-4.0864E-06,-8.62E-12,0.05,12247.6974328826,,
6.24,4.0928E-06,-4.0968E-06,2.737E-11,0.05,12216.57544957,,
6.26,4.103E-06,-4.1073E-06,6.044E-11,0.05,12186.2052156958,,
6.28,4.1131E-06,-4.1174E-06,4.862E-11,0.05,12156.2811504704,,
6.3,4.1237E-06,-4.1278E-06,7.881E-11,0.05,12125.0333438417,,
6.32,4.1344E-06,-4.1386E-06,1.0063E-10,0.05,12093.653250774,,
6.34,4.1444E-06,-4.1485E-06,5.07E-11,0.05,12064.4725412605,,
6.36,4.1546E-06,-4.1591E-06,4.486E-11,0.05,12034.8529340971,,
6.38,4.1652E-06,-4.1696E-06,3.706E-11,0.05,12004.2254873716,,
6.4,4.1755E-06,-4.1798E-06,1.005E-11,0.05,11974.6138187043,,
6.42,4.1855E-06,-4.19E-06,-1.225E-11,0.05,11946.0040616414,,
6.44,4.1956E-06,-4.2003E-06,5.327E-11,0.05,11917.2466393364,,
6.46,4.206E-06,-4.2104E-06,4.298E-11,0.05,11887.779362815,,
6.48,4.2161E-06,-4.2203E-06,5.364E-11,0.05,11859.3012499704,,
