Vg,Id,Is,Ig,Vd,Rt,Ib,I_handle
0,4.79E-12,-1.3698E-10,1.3604E-10,0.05,10438413361.1691,,
0.02,-2.9E-13,-1.7591E-09,1.7794E-09,0.05,-172413793103.448,,
0.04,-3.74E-12,-3.2995E-09,3.3004E-09,0.05,-13368983957.2192,,
0.06,-2.94E-12,-4.8677E-09,4.8566E-09,0.05,-17006802721.0884,,
0.08,-9.78E-12,-6.4051E-09,6.3801E-09,0.05,-5112474437.62781,,
0.1,-3.98E-12,-7.7765E-09,7.7899E-09,0.05,-12562814070.3518,,
0.12,-5.76E-12,-9.146E-09,9.1604E-09,0.05,-8680555555.55556,,
0.14,-2.01E-12,-1.05102E-08,1.0474E-08,0.05,-24875621890.5473,,
0.16,-4.24E-11,-1.17154E-08,1.16546E-08,0.05,-1179245283.01887,,
0.18,-3.57E-11,-1.28774E-08,1.28644E-08,0.05,-1400560224.08964,,
0.2,-3.349E-11,-1.39736E-08,1.39693E-08,0.05,-1492982979.99403,,
0.22,-3.359E-11,-1.50538E-08,1.50152E-08,0.05,-1488538255.43316,,
0.24,-3.909E-11,-1.60262E-08,1.59757E-08,0.05,-1279099513.94218,,
0.26,-1.72E-11,-1.69558E-08,1.69005E-08,0.05,-2906976744.18605,,
0.28,-3.293E-11,-1.79412E-08,1.79041E-08,0.05,-1518372304.88916,,
0.3,-1.339E-11,-1.88752E-08,1.88409E-08,0.05,-3734129947.72218,,
0.32,-9.73E-12,-1.98614E-08,1.98039E-08,0.05,-5138746145.94039,,
0.34,-1.536E-11,-2.0685E-08,2.068E-08,0.05,-3255208333.33333,,
0.36,-2.924E-11,-2.17088E-08,2.16896E-08,0.05,-1709986320.10944,,
0.38,-6.59E-12,-2.25134E-08,2.24907E-08,0.05,-7587253414.26404,,
0.4,-3.61E-12,-2.3396E-08,2.34214E-08,0.05,-13850415512.4654,,
0.42,-2.039E-11,-2.43824E-08,2.42945E-08,0.05,-2452182442.37371,,
0.44,4.04E-12,-2.52258E-08,2.51739E-08,0.05,12376237623.7624,,
0.46,-2.047E-11,-2.61328E-08,2.60368E-08,0.05,-2442598925.25647,,
0.48,3.83E-12,-2.6917E-08,2.69295E-08,0.05,13054830287.2063,,
0.5,-8.69E-12,-2.77784E-08,2.77869E-08,0.05,-5753739930.95512,,
0.52,-2.685E-11,-2.86158E-08,2.86157E-08,0.05,-1862197392.92365,,
0.54,6E-13,-2.95298E-08,2.94804E-08,0.05,83333333333.3333,,
0.56,-3.6E-12,-3.02766E-08,3.0158E-08,0.05,-13888888888.8889,,
0.58,-3.51E-12,-3.10548E-08,3.10186E-08,0.05,-14245014245.0142,,
0.6,1.67E-12,-3.19254E-08,3.18545E-08,0.05,29940119760.479,,
0.62,-3.273E-11,-3.2772E-08,3.27077E-08,0.05,-1527650473.57165,,
0.64,-3.58E-12,-3.36536E-08,3.36104E-08,0.05,-13966480446.9274,,
0.66,-8.66E-12,-3.45376E-08,3.44839E-08,0.05,-5773672055.42725,,
0.68,7.54E-12,-3.51848E-08,3.52839E-08,0.05,6631299734.74801,,
0.7,-5.319E-11,-3.60496E-08,3.60529E-08,0.05,-940026320.736981,,
0.72,-3.759E-11,-3.6863E-08,3.68198E-08,0.05,-1330140994.94546,,
0.74,-8.92E-12,-3.75018E-08,3.75206E-08,0.05,-5605381165.91928,,
0.76,-2.687E-11,-3.82084E-08,3.8208E-08,0.05,-1860811313.73279,,
0.78,-1.518E-11,-3.90424E-08,3.89967E-08,0.05,-3293807641.63373,,
0.8,2.68E-12,-3.985E-08,3.98436E-08,0.05,18656716417.9104,,
0.82,-2.763E-11,-4.05728E-08,4.05452E-08,0.05,-1809627216.79334,,
0.84,2.311E-11,-4.13768E-08,4.13057E-08,0.05,2163565556.03635,,
0.86,-7.1E-12,-4.20834E-08,4.20599E-08,0.05,-7042253521.12676,,
0.88,1.242E-11,-4.2978E-08,4.28697E-08,0.05,4025764895.33011,,
0.9,-4.618E-11,-4.35488E-08,4.35885E-08,0.05,-1082719792.1178,,
0.92,-1.044E-11,-4.43884E-08,4.4335E-08,0.05,-4789272030.65134,,
0.94,-5.121E-11,-4.50292E-08,4.50411E-08,0.05,-976371802.382347,,
0.96,-1.8E-13,-4.58688E-08,4.57691E-08,0.05,-277777777777.778,,
0.98,5.35E-12,-4.6542E-08,4.65201E-08,0.05,9345794392.52337,,
1,-1.016E-11,-4.73096E-08,4.72274E-08,0.05,-4921259842.51968,,
1.02,5.91E-12,-4.79684E-08,4.78977E-08,0.05,8460236886.63283,,
1.04,-6.04E-12,-4.87418E-08,4.86201E-08,0.05,-8278145695.36424,,
1.06,1.63E-12,-4.92936E-08,4.92864E-08,0.05,30674846625.7669,,
1.08,-2.19E-11,-4.9938E-08,5.00344E-08,0.05,-2283105022.83105,,
1.1,-4.16E-12,-5.0665E-08,5.06139E-08,0.05,-12019230769.2308,,
1.12,-1.167E-11,-5.13122E-08,5.13637E-08,0.05,-4284490145.67267,,
1.14,1.116E-11,-5.2095E-08,5.20681E-08,0.05,4480286738.35125,,
1.16,-7.28E-12,-5.27314E-08,5.26765E-08,0.05,-6868131868.13187,,
1.18,-2.53E-12,-5.33898E-08,5.33455E-08,0.05,-19762845849.8024,,
1.2,2.85E-12,-5.40518E-08,5.40357E-08,0.05,17543859649.1228,,
1.22,1.068E-11,-5.45958E-08,5.45642E-08,0.05,4681647940.07491,,
1.24,1.309E-11,-5.53122E-08,5.52573E-08,0.05,3819709702.06264,,
1.26,2.7819E-10,-5.59022E-08,5.58997E-08,0.05,179733275.818685,,
1.28,-3.13E-11,-5.65458E-08,5.65245E-08,0.05,-1597444089.45687,,
1.3,4.9E-13,-5.71082E-08,5.70397E-08,0.05,102040816326.531,,
1.32,-1.095E-11,-5.76866E-08,5.77488E-08,0.05,-4566210045.6621,,
1.34,1.754E-11,-5.8451E-08,5.8497E-08,0.05,2850627137.97035,,
1.36,-1.341E-11,-5.91412E-08,5.92065E-08,0.05,-3728560775.54064,,
1.38,-3.336E-11,-5.9812E-08,5.98033E-08,0.05,-1498800959.23261,,
1.4,-9.82E-12,-6.0353E-08,6.03436E-08,0.05,-5091649694.50102,,
1.42,9.22E-12,-6.1123E-08,6.10695E-08,0.05,5422993492.40781,,
1.44,-7.96E-12,-6.17358E-08,6.16369E-08,0.05,-6281407035.17588,,
1.46,2.8782E-10,-6.20894E-08,6.21832E-08,0.05,173719685.914808,,
1.48,1.503E-11,-6.28794E-08,6.28949E-08,0.05,3326679973.38656,,
1.5,-3.373E-11,-6.35076E-08,6.3432E-08,0.05,-1482359916.98784,,
1.52,-2.077E-11,-6.41038E-08,6.40962E-08,0.05,-2407318247.47232,,
1.54,-8.59E-12,-6.47064E-08,6.47345E-08,0.05,-5820721769.49942,,
1.56,-1.836E-11,-6.53186E-08,6.5288E-08,0.05,-2723311546.84096,,
1.58,6.4E-12,-6.59648E-08,6.59505E-08,0.05,7812500000,,
1.6,3.629E-11,-6.64014E-08,6.63505E-08,0.05,1377790024.80022,,
1.62,4.34E-12,-6.70516E-08,6.70276E-08,0.05,11520737327.1889,,
1.64,-3.083E-11,-6.76048E-08,6.75517E-08,0.05,-1621796951.02173,,
1.66,9.8E-13,-6.81676E-08,6.81744E-08,0.05,51020408163.2653,,
1.68,-6.475E-11,-6.87992E-08,6.88445E-08,0.05,-772200772.200772,,
1.7,5.886E-11,-6.93718E-08,6.94193E-08,0.05,849473326.537547,,
1.72,3.98E-12,-6.99394E-08,6.98707E-08,0.05,12562814070.3518,,
1.74,1.082E-11,-7.05692E-08,7.05238E-08,0.05,4621072088.72458,,
1.76,-1.9E-12,-7.11208E-08,7.11693E-08,0.05,-26315789473.6842,,
1.78,-1.801E-11,-7.17026E-08,7.17326E-08,0.05,-2776235424.76402,,
1.8,9.19E-12,-7.23864E-08,7.23464E-08,0.05,5440696409.14037,,
1.82,-2.377E-11,-7.28764E-08,7.28782E-08,0.05,-2103491796.38199,,
1.84,-9.3E-13,-7.33798E-08,7.34477E-08,0.05,-53763440860.2151,,
1.86,-9.96E-12,-7.39858E-08,7.40251E-08,0.05,-5020080321.28514,,
1.88,7.14E-12,-7.45446E-08,7.46525E-08,0.05,7002801120.44818,,
1.9,-1.275E-11,-7.50568E-08,7.5074E-08,0.05,-3921568627.45098,,
1.92,2.127E-11,-7.5592E-08,7.56312E-08,0.05,2350728725.90503,,
1.94,-2.853E-11,-7.62308E-08,7.62094E-08,0.05,-1752541184.71784,,
1.96,3.44E-12,-7.6616E-08,7.6691E-08,0.05,14534883720.9302,,
1.98,4.837E-11,-7.71858E-08,7.715E-08,0.05,1033698573.49597,,
2,-5.23E-11,-7.76828E-08,7.75674E-08,0.05,-956022944.550669,,
2.02,-3.906E-11,-7.81232E-08,7.81477E-08,0.05,-1280081925.24322,,
2.04,1.532E-11,-7.88896E-08,7.88669E-08,0.05,3263707571.80157,,
2.06,-1.941E-11,-7.94382E-08,7.93682E-08,0.05,-2575991756.82638,,
2.08,3.748E-11,-7.99018E-08,7.99153E-08,0.05,1334044823.90608,,
2.1,-1.427E-11,-8.04574E-08,8.042E-08,0.05,-3503854239.66363,,
2.12,-5.223E-11,-8.09938E-08,8.07889E-08,0.05,-957304231.284702,,
2.14,-5.09E-12,-8.14022E-08,8.14747E-08,0.05,-9823182711.19843,,
2.16,-6.42E-12,-8.19218E-08,8.19607E-08,0.05,-7788161993.76947,,
2.18,-5.55E-12,-8.2575E-08,8.25086E-08,0.05,-9009009009.00901,,
2.2,-8.104E-11,-8.31016E-08,8.30763E-08,0.05,-616979269.496545,,
2.22,1.272E-11,-8.35792E-08,8.35812E-08,0.05,3930817610.06289,,
2.24,3.354E-11,-8.4082E-08,8.42151E-08,0.05,1490757304.71079,,
2.26,-7.51E-12,-8.4806E-08,8.47519E-08,0.05,-6657789613.8482,,
2.28,3.215E-11,-8.52636E-08,8.52703E-08,0.05,1555209953.3437,,
2.3,4.014E-11,-8.58732E-08,8.58178E-08,0.05,1245640259.09317,,
2.32,-1.854E-11,-8.62142E-08,8.63644E-08,0.05,-2696871628.91046,,
2.34,3.64E-12,-8.70802E-08,8.69345E-08,0.05,13736263736.2637,,
2.36,3E-13,-8.74594E-08,8.74238E-08,0.05,166666666666.667,,
2.38,-4.923E-11,-8.80406E-08,8.79339E-08,0.05,-1015640869.38858,,
2.4,-5.766E-11,-8.86534E-08,8.85831E-08,0.05,-867152271.938952,,
2.42,-2.382E-11,-8.9074E-08,8.9087E-08,0.05,-2099076406.38119,,
2.44,-2.92E-11,-8.95138E-08,8.94287E-08,0.05,-1712328767.12329,,
2.46,-2.238E-11,-9.00194E-08,8.99431E-08,0.05,-2234137622.87757,,
2.48,2.68E-11,-9.04802E-08,9.04825E-08,0.05,1865671641.79104,,
2.5,1.89E-11,-9.1017E-08,9.0952E-08,0.05,2645502645.50265,,
2.52,7.73E-12,-9.16398E-08,9.17099E-08,0.05,6468305304.01035,,
2.54,3.688E-11,-9.2379E-08,9.22992E-08,0.05,1355748373.10195,,
2.56,-1.556E-11,-9.27176E-08,9.27761E-08,0.05,-3213367609.2545,,
2.58,-5.672E-11,-9.3222E-08,9.33575E-08,0.05,-881523272.214386,,
2.6,-2.769E-11,-9.38172E-08,9.39395E-08,0.05,-1805706031.05814,,
2.62,-4.559E-11,-9.45142E-08,9.44801E-08,0.05,-1096731739.41654,,
2.64,2.307E-11,-9.48382E-08,9.488E-08,0.05,2167316861.72518,,
2.66,-8.63E-11,-9.53566E-08,9.53432E-08,0.05,-579374275.782155,,
2.68,-2.407E-11,-9.58128E-08,9.59112E-08,0.05,-2077274615.7042,,
2.7,-4.48E-12,-9.63412E-08,9.63827E-08,0.05,-11160714285.7143,,
2.72,-1.693E-11,-9.68726E-08,9.67262E-08,0.05,-2953337271.11636,,
2.74,-4.728E-11,-9.73554E-08,9.74421E-08,0.05,-1057529610.8291,,
2.76,-3.192E-11,-9.80598E-08,9.78449E-08,0.05,-1566416040.10025,,
2.78,-8.246E-11,-9.83874E-08,9.83736E-08,0.05,-606354596.167839,,
2.8,3.946E-11,-9.87284E-08,9.88274E-08,0.05,1267105930.05575,,
2.82,6.959E-11,-9.94324E-08,9.94898E-08,0.05,718494036.499497,,
2.84,6.135E-11,-9.99962E-08,1.000012E-07,0.05,814995925.020375,,
2.86,-3.105E-11,-9.99676E-08,1.000015E-07,0.05,-1610305958.13204,,
2.88,-9.068E-11,-1.000192E-07,1.000023E-07,0.05,-551389501.543891,,
2.9,-1.3328E-10,-1.00038E-07,1.00001E-07,0.05,-375150060.02401,,
2.92,-3.148E-11,-1.003226E-07,1.00002E-07,0.05,-1588310038.11944,,
2.94,-3.112E-11,-9.99466E-08,1.000015E-07,0.05,-1606683804.62725,,
2.96,-3.294E-11,-1.000176E-07,1.000009E-07,0.05,-1517911353.97693,,
2.98,-5.13E-11,-9.99548E-08,1.000019E-07,0.05,-974658869.395711,,
3,-6.23E-12,-9.99136E-08,1.000015E-07,0.05,-8025682182.98555,,
3.02,4.346E-11,-1.000444E-07,1.000018E-07,0.05,1150483202.94524,,
3.04,3.098E-11,-9.99094E-08,1.000015E-07,0.05,1613944480.30988,,
3.06,-4.515E-11,-1.000696E-07,1.000014E-07,0.05,-1107419712.07087,,
3.08,2.938E-11,-9.9915E-08,1.000021E-07,0.05,1701837985.02383,,
3.1,-8.174E-11,-1.000544E-07,1.000013E-07,0.05,-611695620.259359,,
3.12,9.26E-12,-9.9912E-08,1.000015E-07,0.05,5399568034.55724,,
3.14,-4.533E-11,-1.000472E-07,1.000014E-07,0.05,-1103022281.05008,,
3.16,-2.194E-11,-1.000572E-07,1.000018E-07,0.05,-2278942570.64722,,
3.18,4.14E-12,-1.00027E-07,1.000012E-07,0.05,12077294685.9903,,
3.2,-5.713E-11,-1.000196E-07,1.000016E-07,0.05,-875196919.306844,,
3.22,1.53E-11,-9.99866E-08,1.000015E-07,0.05,3267973856.20915,,
3.24,1.6068E-10,-1.000356E-07,1.000017E-07,0.05,311177495.643515,,
3.26,4.656E-11,-9.99398E-08,1.000016E-07,0.05,1073883161.51203,,
3.28,-5.4E-13,-9.99534E-08,1.000015E-07,0.05,-92592592592.5926,,
3.3,-3.92E-12,-1.000168E-07,1.000018E-07,0.05,-12755102040.8163,,
3.32,-9.698E-11,-1.000252E-07,1.00002E-07,0.05,-515570220.664054,,
3.34,-6.404E-11,-9.99526E-08,1.000015E-07,0.05,-780762023.735165,,
3.36,-2.179E-11,-1.000152E-07,1.000015E-07,0.05,-2294630564.47912,,
3.38,2.466E-11,-1.000046E-07,1.000021E-07,0.05,2027575020.27575,,
3.4,-1.205E-11,-9.9996E-08,1.000017E-07,0.05,-4149377593.361,,
3.42,1.043E-11,-1.000188E-07,1.000015E-07,0.05,4793863854.26654,,
3.44,-1.742E-11,-1.000498E-07,1.000018E-07,0.05,-2870264064.29391,,
3.46,1.442E-11,-9.9914E-08,1.000015E-07,0.05,3467406380.02774,,
3.48,-1.223E-11,-1.000312E-07,1.000013E-07,0.05,-4088307440.71954,,
3.5,2.26E-12,-9.9967E-08,1.000016E-07,0.05,22123893805.3097,,
3.52,-4.338E-11,-1.000722E-07,1.000018E-07,0.05,-1152604887.04472,,
3.54,3.093E-11,-9.99478E-08,1.000018E-07,0.05,1616553507.92111,,
3.56,1.087E-11,-9.99622E-08,1.000021E-07,0.05,4599816007.35971,,
3.58,-8.209E-11,-9.9973E-08,1.000013E-07,0.05,-609087586.794981,,
3.6,3.534E-11,-9.99282E-08,1.000018E-07,0.05,1414827391.05829,,
3.62,8.39E-12,-1.001288E-07,1.000015E-07,0.05,5959475566.15018,,
3.64,2.909E-11,-1.000222E-07,1.000014E-07,0.05,1718803712.61602,,
3.66,1.069E-11,-1.000482E-07,1.000019E-07,0.05,4677268475.21048,,
3.68,-6.21E-12,-1.000762E-07,1.000016E-07,0.05,-8051529790.66022,,
3.7,5.304E-11,-1.00061E-07,1.000015E-07,0.05,942684766.214178,,
3.72,-1.637E-11,-9.99898E-08,1.00002E-07,0.05,-3054367745.8766,,
3.74,-1.866E-11,-9.9967E-08,1.000019E-07,0.05,-2679528403.00107,,
3.76,2.943E-11,-1.000466E-07,1.000017E-07,0.05,1698946653.07509,,
3.78,-9.726E-11,-1.00068E-07,1.000016E-07,0.05,-514085955.171705,,
3.8,1.099E-11,-9.99592E-08,1.000015E-07,0.05,4549590536.85168,,
3.82,-1.5E-12,-1.000162E-07,1.000018E-07,0.05,-33333333333.3333,,
3.84,-1.118E-11,-9.994E-08,1.000018E-07,0.05,-4472271914.13238,,
3.86,-1.531E-11,-9.99634E-08,1.000015E-07,0.05,-3265839320.70542,,
3.88,3.553E-11,-1.00007E-07,1.000015E-07,0.05,1407261469.18097,,
3.9,-7.116E-11,-1.00023E-07,1.000015E-07,0.05,-702641933.670601,,
3.92,-1.833E-11,-9.99458E-08,1.000017E-07,0.05,-2727768685.21549,,
3.94,-5.91E-12,-9.997E-08,1.000018E-07,0.05,-8460236886.63283,,
3.96,2.773E-11,-1.000582E-07,1.000019E-07,0.05,1803101334.29499,,
3.98,-9.32E-12,-9.998E-08,1.000016E-07,0.05,-5364806866.95279,,
4,-8E-14,-9.99916E-08,1.000015E-07,0.05,-625000000000,,
4.02,9.513E-11,-1.000302E-07,1.000017E-07,0.05,525596552.086618,,
4.04,9.599E-11,-1.001886E-07,1.000015E-07,0.05,520887592.457548,,
4.06,-3.586E-11,-9.99164E-08,1.000013E-07,0.05,-1394311210.26213,,
4.08,3.626E-11,-1.00133E-07,1.000018E-07,0.05,1378929950.35852,,
4.1,3.377E-11,-1.000262E-07,1.000016E-07,0.05,1480604086.46728,,
4.12,-2.46E-12,-1.000384E-07,1.000015E-07,0.05,-20325203252.0325,,
4.14,-1.465E-11,-1.000904E-07,1.000017E-07,0.05,-3412969283.27645,,
4.16,-7.768E-11,-1.000076E-07,1.000016E-07,0.05,-643666323.377961,,
4.18,-1.78E-12,-1.000902E-07,1.000015E-07,0.05,-28089887640.4494,,
4.2,-3.251E-11,-9.99636E-08,1.000014E-07,0.05,-1537988311.28883,,
4.22,-1.75E-12,-1.000684E-07,1.000016E-07,0.05,-28571428571.4286,,
4.24,-3.86E-12,-1.00056E-07,1.000018E-07,0.05,-12953367875.6477,,
4.26,-2.151E-11,-9.99028E-08,1.000019E-07,0.05,-2324500232.45002,,
4.28,-3.393E-11,-1.00072E-07,1.000017E-07,0.05,-1473622163.27734,,
4.3,2.366E-11,-1.00024E-07,1.000019E-07,0.05,2113271344.04057,,
4.32,-6.34E-11,-1.000696E-07,1.000015E-07,0.05,-788643533.123028,,
4.34,6.133E-11,-9.99744E-08,1.000016E-07,0.05,815261699.005381,,
4.36,7.8E-13,-9.99564E-08,1.000013E-07,0.05,64102564102.5641,,
4.38,-1.2741E-10,-1.000792E-07,1.000018E-07,0.05,-392433874.892081,,
4.4,-2.056E-11,-9.9958E-08,1.000015E-07,0.05,-2431906614.78599,,
4.42,-1.028E-11,-1.00059E-07,1.000015E-07,0.05,-4863813229.57198,,
4.44,1.851E-11,-1.000216E-07,1.000014E-07,0.05,2701242571.58293,,
4.46,3.561E-11,-1.000512E-07,1.000017E-07,0.05,1404099971.918,,
4.48,1.861E-11,-1.001084E-07,1.000018E-07,0.05,2686727565.82483,,
4.5,-9.069E-11,-1.000296E-07,1.000017E-07,0.05,-551328702.172235,,
4.52,2.129E-11,-9.99884E-08,1.000018E-07,0.05,2348520432.12776,,
4.54,3.058E-11,-9.99726E-08,1.000012E-07,0.05,1635055591.89012,,
4.56,-2.424E-11,-1.00066E-07,1.000018E-07,0.05,-2062706270.62706,,
4.58,-2.4E-13,-9.9962E-08,1.000015E-07,0.05,-208333333333.333,,
4.6,4.082E-11,-9.99862E-08,1.000019E-07,0.05,1224889759.92161,,
4.62,4.961E-11,-9.99842E-08,1.00002E-07,0.05,1007861318.2826,,
4.64,4.171E-11,-9.99196E-08,1.000021E-07,0.05,1198753296.57157,,
4.66,-1.47E-12,-1.004324E-07,1.000016E-07,0.05,-34013605442.1769,,
4.68,2.389E-11,-9.99292E-08,1.000021E-07,0.05,2092925910.42277,,
4.7,3.61E-11,-1.000266E-07,1.000015E-07,0.05,1385041551.24654,,
4.72,-1.441E-11,-9.99684E-08,1.000015E-07,0.05,-3469812630.11797,,
4.74,3.125E-11,-9.9841E-08,1.000015E-07,0.05,1600000000,,
4.76,-5.456E-11,-9.99578E-08,1.000015E-07,0.05,-916422287.390029,,
4.78,-1.213E-11,-1.000644E-07,1.000015E-07,0.05,-4122011541.63232,,
4.8,-4.588E-11,-1.000294E-07,1.000016E-07,0.05,-1089799476.89625,,
4.82,1.592E-11,-9.99606E-08,1.000013E-07,0.05,3140703517.58794,,
4.84,8.068E-11,-9.99692E-08,1.000018E-07,0.05,619732275.656916,,
4.86,3.22E-11,-1.000248E-07,1.000015E-07,0.05,1552795031.0559,,
4.88,-1.155E-11,-9.99608E-08,1.000014E-07,0.05,-4329004329.00433,,
4.9,-2.584E-11,-1.001026E-07,1.000019E-07,0.05,-1934984520.12384,,
4.92,-7.76E-12,-9.9933E-08,1.000017E-07,0.05,-6443298969.07216,,
