Vg,Id,Is,Ig,Vd,Rt,Ib,I_handle
0,9.44E-12,-5.25E-12,2.413E-11,0.05,5296610169.49153,,
0.02,7.6E-12,-1.196E-11,2.2E-13,0.05,6578947368.42105,,
0.04,1.5E-13,-1.244E-11,-1.895E-11,0.05,333333333333.333,,
0.06,-3.8E-12,-1.467E-11,-1.375E-11,0.05,-13157894736.8421,,
0.08,-1.066E-11,-8.67E-12,1.737E-11,0.05,-4690431519.69981,,
0.1,-2.8E-12,-1.313E-11,5.433E-11,0.05,-17857142857.1429,,
0.12,-9.68E-12,-1.021E-11,2.899E-11,0.05,-5165289256.19835,,
0.14,-8.91E-12,-2.121E-11,2.232E-11,0.05,-5611672278.33894,,
0.16,-2.205E-11,-1.572E-11,-1.303E-11,0.05,-2267573696.14512,,
0.18,-1.926E-11,-1.858E-11,3.728E-11,0.05,-2596053997.92316,,
0.2,-2.563E-11,-1.495E-11,5.123E-11,0.05,-1950838860.71011,,
0.22,-2.032E-11,-1.309E-11,8.072E-11,0.05,-2460629921.25984,,
0.24,-2.288E-11,-1.861E-11,4.323E-11,0.05,-2185314685.31469,,
0.26,-2.818E-11,-1.999E-11,2.514E-11,0.05,-1774308019.87225,,
0.28,-3.287E-11,-2.236E-11,2.663E-11,0.05,-1521143900.21296,,
0.3,-3.775E-11,-1.377E-11,5.761E-11,0.05,-1324503311.25828,,
0.32,-3.041E-11,-2.202E-11,9.094E-11,0.05,-1644195988.16179,,
0.34,-3.876E-11,-1.745E-11,6.478E-11,0.05,-1289989680.08256,,
0.36,-3.726E-11,-2.847E-11,5.834E-11,0.05,-1341921631.7767,,
0.38,-5.092E-11,-2.207E-11,2.627E-11,0.05,-981932443.047918,,
0.4,-4.622E-11,-2.589E-11,7.018E-11,0.05,-1081782778.01817,,
0.42,-5.254E-11,-2.016E-11,8.277E-11,0.05,-951655881.233346,,
0.44,-4.63E-11,-2.06E-11,1.1721E-10,0.05,-1079913606.91145,,
0.46,-5.053E-11,-2.18E-11,7.791E-11,0.05,-989511181.476351,,
0.48,-5.305E-11,-2.519E-11,4.62E-11,0.05,-942507068.803016,,
0.5,-5.919E-11,-2.838E-11,7.648E-11,0.05,-844737286.703835,,
0.52,-6.398E-11,-2.071E-11,9.215E-11,0.05,-781494216.942795,,
0.54,-5.636E-11,-2.551E-11,1.2997E-10,0.05,-887154009.936125,,
0.56,-6.391E-11,-2.399E-11,9.458E-11,0.05,-782350179.940541,,
0.58,-6.141E-11,-3.17E-11,8.775E-11,0.05,-814199641.752158,,
0.6,-7.217E-11,-3.011E-11,5.468E-11,0.05,-692808646.251905,,
0.62,-7.307E-11,-3.073E-11,1.036E-10,0.05,-684275352.401806,,
0.64,-7.627E-11,-2.863E-11,1.2552E-10,0.05,-655565753.24505,,
0.66,-7.349E-11,-2.499E-11,1.4412E-10,0.05,-680364675.46605,,
0.68,-7.442E-11,-3.248E-11,1.1164E-10,0.05,-671862402.579952,,
0.7,-7.954E-11,-3.116E-11,8.625E-11,0.05,-628614533.568016,,
0.72,-8.197E-11,-3.416E-11,1.0268E-10,0.05,-609979260.705136,,
0.74,-8.686E-11,-2.693E-11,1.2126E-10,0.05,-575638959.244762,,
0.76,-7.951E-11,-3.276E-11,1.6015E-10,0.05,-628851716.765187,,
0.78,-8.765E-11,-2.994E-11,1.2595E-10,0.05,-570450656.018254,,
0.8,-8.486E-11,-3.946E-11,1.2233E-10,0.05,-589205750.648126,,
0.82,-9.588E-11,-3.659E-11,8.681E-11,0.05,-521485189.820609,,
0.84,-9.35E-11,-3.871E-11,1.3337E-10,0.05,-534759358.28877,,
0.86,-9.813E-11,-3.463E-11,1.4647E-10,0.05,-509528176.908183,,
0.88,-9.161E-11,-3.432E-11,1.7683E-10,0.05,-545791944.110905,,
0.9,-9.268E-11,-3.57E-11,1.3661E-10,0.05,-539490720.759603,,
0.92,-9.659E-11,-4.086E-11,1.2153E-10,0.05,-517651930.841702,,
0.94,-1.0097E-10,-4.216E-11,1.1462E-10,0.05,-495196593.04744,,
0.96,-1.015E-10,-3.621E-11,1.4578E-10,0.05,-492610837.438424,,
0.98,-9.662E-11,-3.996E-11,1.7522E-10,0.05,-517491202.649555,,
1,-1.017E-10,-3.74E-11,1.5854E-10,0.05,-491642084.562439,,
1.02,-1.0023E-10,-4.88E-11,1.4776E-10,0.05,-498852638.93046,,
1.04,-1.1022E-10,-4.319E-11,1.1474E-10,0.05,-453638178.189076,,
1.06,-1.0525E-10,-4.859E-11,1.5051E-10,0.05,-475059382.422803,,
1.08,-1.096E-10,-4.025E-11,1.6141E-10,0.05,-456204379.562044,,
1.1,-9.998E-11,-4.329E-11,1.998E-10,0.05,-500100020.004001,,
1.12,-1.0433E-10,-4.337E-11,1.5387E-10,0.05,-479248538.291958,,
1.14,-1.027E-10,-4.969E-11,1.4057E-10,0.05,-486854917.234664,,
1.16,-1.077E-10,-4.988E-11,1.2077E-10,0.05,-464252553.389044,,
1.18,-1.0976E-10,-4.899E-11,1.6189E-10,0.05,-455539358.600583,,
1.2,-1.0498E-10,-5.024E-11,1.8481E-10,0.05,-476281196.418365,,
1.22,-1.0441E-10,-4.537E-11,1.8311E-10,0.05,-478881333.205632,,
1.24,-1.0227E-10,-5.7E-11,1.596E-10,0.05,-488901926.273589,,
1.26,-1.1119E-10,-5.39E-11,1.2894E-10,0.05,-449680726.684054,,
1.28,-1.0567E-10,-5.553E-11,1.5675E-10,0.05,-473171193.33775,,
1.3,-1.084E-10,-5.028E-11,1.6632E-10,0.05,-461254612.546125,,
1.32,-9.79E-11,-5.455E-11,2.0259E-10,0.05,-510725229.826353,,
1.34,-1.0319E-10,-5.258E-11,1.6292E-10,0.05,-484543075.879446,,
1.36,-9.877E-11,-6.201E-11,1.5555E-10,0.05,-506226587.02035,,
1.38,-1.0589E-10,-6.105E-11,1.2029E-10,0.05,-472188119.746907,,
1.4,-1.0291E-10,-6.225E-11,1.6691E-10,0.05,-485861432.319502,,
1.42,-1.043E-10,-6.087E-11,1.8346E-10,0.05,-479386385.426654,,
1.44,-9.716E-11,-5.844E-11,1.9792E-10,0.05,-514615067.929189,,
1.46,-9.509E-11,-6.633E-11,1.6457E-10,0.05,-525817646.440215,,
1.48,-9.725E-11,-6.628E-11,1.4126E-10,0.05,-514138817.48072,,
1.5,-9.709E-11,-6.875E-11,1.4686E-10,0.05,-514986095.375425,,
1.52,-9.774E-11,-6.139E-11,1.6842E-10,0.05,-511561285.041948,,
1.54,-8.766E-11,-6.784E-11,2.0238E-10,0.05,-570385580.652521,,
1.56,-9.14E-11,-6.594E-11,1.7057E-10,0.05,-547045951.859956,,
1.58,-8.661E-11,-7.596E-11,1.6076E-10,0.05,-577300542.66251,,
1.6,-9.512E-11,-7.354E-11,1.207E-10,0.05,-525651808.24222,,
1.62,-8.836E-11,-7.546E-11,1.6526E-10,0.05,-565866908.103214,,
1.64,-8.991E-11,-7.352E-11,1.7731E-10,0.05,-556111667.222778,,
1.66,-8.235E-11,-7.27E-11,2.065E-10,0.05,-607164541.590771,,
1.68,-7.954E-11,-7.866E-11,1.6177E-10,0.05,-628614533.568016,,
1.7,-8.235E-11,-7.984E-11,1.3973E-10,0.05,-607164541.590771,,
1.72,-8.172E-11,-8.102E-11,1.496E-10,0.05,-611845325.501713,,
1.74,-8.438E-11,-7.646E-11,1.6539E-10,0.05,-592557478.075373,,
1.76,-7.186E-11,-8.373E-11,1.9927E-10,0.05,-695797383.801837,,
1.78,-7.565E-11,-8.116E-11,1.7015E-10,0.05,-660938532.716457,,
1.8,-7.058E-11,-9.159E-11,1.619E-10,0.05,-708415981.864551,,
1.82,-7.668E-11,-8.951E-11,1.233E-10,0.05,-652060511.215441,,
1.84,-7.182E-11,-9.231E-11,1.6388E-10,0.05,-696184906.711223,,
1.86,-7.27E-11,-9.024E-11,1.7829E-10,0.05,-687757909.215956,,
1.88,-6.522E-11,-8.871E-11,2.0273E-10,0.05,-766636001.226618,,
1.9,-6.201E-11,-9.501E-11,1.6443E-10,0.05,-806321561.038542,,
1.92,-6.387E-11,-9.742E-11,1.419E-10,0.05,-782840144.042586,,
1.94,-6.275E-11,-1.0002E-10,1.4458E-10,0.05,-796812749.003984,,
1.96,-6.439E-11,-9.49E-11,1.661E-10,0.05,-776518092.871564,,
1.98,-5.347E-11,-1.021E-10,1.9829E-10,0.05,-935103796.521414,,
2,-5.639E-11,-9.929E-11,1.6792E-10,0.05,-886682035.821954,,
2.02,-5.184E-11,-1.1179E-10,1.6134E-10,0.05,-964506172.839506,,
2.04,-6.015E-11,-1.079E-10,1.2492E-10,0.05,-831255195.344971,,
2.06,-5.234E-11,-1.1167E-10,1.664E-10,0.05,-955292319.449752,,
2.08,-5.405E-11,-1.0946E-10,1.7825E-10,0.05,-925069380.203515,,
2.1,-4.419E-11,-1.0929E-10,2.0575E-10,0.05,-1131477709.88912,,
2.12,-4.142E-11,-1.152E-10,1.6277E-10,0.05,-1207146306.1323,,
2.14,-4.201E-11,-1.1873E-10,1.4314E-10,0.05,-1190192811.23542,,
2.16,-4.239E-11,-1.2165E-10,1.4056E-10,0.05,-1179523472.5171,,
2.18,-4.273E-11,-1.1841E-10,1.6685E-10,0.05,-1170138076.293,,
2.2,-2.985E-11,-1.2138E-10,2.0573E-10,0.05,-1675041876.0469,,
2.22,-3.021E-11,-1.2534E-10,1.6143E-10,0.05,-1655081098.97385,,
2.24,-2.89E-11,-1.3052E-10,1.4792E-10,0.05,-1730103806.22837,,
2.26,-2.996E-11,-1.3428E-10,1.3074E-10,0.05,-1668891855.80774,,
2.28,-3.25E-11,-1.3275E-10,1.6557E-10,0.05,-1538461538.46154,,
2.3,-2.33E-11,-1.3606E-10,1.9019E-10,0.05,-2145922746.78112,,
2.32,-2.194E-11,-1.3417E-10,1.8259E-10,0.05,-2278942570.64722,,
2.34,-1.542E-11,-1.4713E-10,1.6473E-10,0.05,-3242542153.04799,,
2.36,-2.389E-11,-1.4479E-10,1.2989E-10,0.05,-2092925910.42277,,
2.38,-1.555E-11,-1.4974E-10,1.5829E-10,0.05,-3215434083.60129,,
2.4,-1.66E-11,-1.4572E-10,1.7013E-10,0.05,-3012048192.77108,,
2.42,-3.57E-12,-1.5216E-10,2.0726E-10,0.05,-14005602240.8964,,
2.44,-5.84E-12,-1.5134E-10,1.663E-10,0.05,-8561643835.61644,,
2.46,1.9E-12,-1.6091E-10,1.551E-10,0.05,26315789473.6842,,
2.48,-2.17E-12,-1.6255E-10,1.2424E-10,0.05,-23041474654.3779,,
2.5,9E-14,-1.6696E-10,1.6935E-10,0.05,555555555555.556,,
2.52,4.75E-12,-1.6768E-10,1.8385E-10,0.05,10526315789.4737,,
2.54,1.213E-11,-1.6671E-10,1.9482E-10,0.05,4122011541.63232,,
2.56,1.537E-11,-1.7715E-10,1.6267E-10,0.05,3253090435.91412,,
2.58,1.197E-11,-1.781E-10,1.3646E-10,0.05,4177109440.26733,,
2.6,1.821E-11,-1.8293E-10,1.5289E-10,0.05,2745744096.65019,,
2.62,1.762E-11,-1.7862E-10,1.6677E-10,0.05,2837684449.48922,,
2.64,3.104E-11,-1.8699E-10,2.017E-10,0.05,1610824742.26804,,
2.66,2.897E-11,-1.8773E-10,1.6516E-10,0.05,1725923369.00242,,
2.68,3.549E-11,-2.0007E-10,1.586E-10,0.05,1408847562.69372,,
2.7,3.114E-11,-1.9935E-10,1.2302E-10,0.05,1605651894.66924,,
2.72,3.821E-11,-2.0514E-10,1.6698E-10,0.05,1308557969.11803,,
2.74,3.953E-11,-2.0546E-10,1.8029E-10,0.05,1264862130.02783,,
2.76,5.045E-11,-2.0668E-10,2.0037E-10,0.05,991080277.502478,,
2.78,5.534E-11,-2.1604E-10,1.6206E-10,0.05,903505601.734731,,
2.8,5.543E-11,-2.1979E-10,1.4294E-10,0.05,902038607.25239,,
2.82,5.913E-11,-2.2498E-10,1.4795E-10,0.05,845594452.900389,,
2.84,5.976E-11,-2.2063E-10,1.6787E-10,0.05,836680053.547523,,
2.86,7.547E-11,-2.3155E-10,1.9825E-10,0.05,662514906.585398,,
2.88,7.339E-11,-2.325E-10,1.7082E-10,0.05,681291729.118408,,
2.9,8.175E-11,-2.4592E-10,1.5843E-10,0.05,611620795.107034,,
2.92,7.702E-11,-2.4597E-10,1.2096E-10,0.05,649182030.641392,,
2.94,8.494E-11,-2.5333E-10,1.6361E-10,0.05,588650812.338121,,
2.96,8.655E-11,-2.5313E-10,1.797E-10,0.05,577700751.010976,,
2.98,9.91E-11,-2.5552E-10,2.0055E-10,0.05,504540867.810293,,
3,1.0469E-10,-2.6471E-10,1.5902E-10,0.05,477600534.912599,,
3.02,1.0682E-10,-2.7173E-10,1.3826E-10,0.05,468077139.112526,,
3.04,1.0961E-10,-2.7631E-10,1.413E-10,0.05,456162758.872366,,
3.06,1.1218E-10,-2.7631E-10,1.6234E-10,0.05,445712248.17258,,
3.08,1.2857E-10,-2.853E-10,1.9577E-10,0.05,388893209.924555,,
3.1,1.2876E-10,-2.8654E-10,1.6824E-10,0.05,388319353.836595,,
3.12,1.3704E-10,-3.0249E-10,1.5859E-10,0.05,364856976.065382,,
3.14,1.3308E-10,-3.0353E-10,1.2057E-10,0.05,375713856.327021,,
3.16,1.4394E-10,-3.1016E-10,1.6243E-10,0.05,347366958.454912,,
3.18,1.4624E-10,-3.1161E-10,1.7862E-10,0.05,341903719.912473,,
3.2,1.6291E-10,-3.1558E-10,1.9967E-10,0.05,306917930.145479,,
3.22,1.6822E-10,-3.243E-10,1.6058E-10,0.05,297229818.095351,,
3.24,1.7067E-10,-3.3255E-10,1.4154E-10,0.05,292963028.065858,,
3.26,1.7541E-10,-3.3975E-10,1.3586E-10,0.05,285046462.573399,,
3.28,1.7786E-10,-3.4037E-10,1.6373E-10,0.05,281119982.008321,,
3.3,1.9077E-10,-3.5027E-10,1.883E-10,0.05,262095717.355978,,
3.32,1.9677E-10,-3.5352E-10,1.7073E-10,0.05,254103775.982111,,
3.34,2.0495E-10,-3.6859E-10,1.6061E-10,0.05,243961941.937058,,
3.36,2.0361E-10,-3.7052E-10,1.239E-10,0.05,245567506.507539,,
3.38,2.1758E-10,-3.8069E-10,1.6141E-10,0.05,229800533.137237,,
3.4,2.191E-10,-3.8191E-10,1.687E-10,0.05,228206298.493838,,
3.42,2.3529E-10,-3.8669E-10,1.8374E-10,0.05,212503718.815079,,
3.44,2.4444E-10,-4.0459E-10,1.5742E-10,0.05,204549173.621339,,
3.46,2.4629E-10,-4.0698E-10,1.3475E-10,0.05,203012708.595558,,
3.48,2.535E-10,-4.1499E-10,1.4372E-10,0.05,197238658.77712,,
3.5,2.5826E-10,-4.1685E-10,1.5937E-10,0.05,193603345.46581,,
3.52,2.7752E-10,-4.2774E-10,1.9278E-10,0.05,180167195.157106,,
3.54,2.7874E-10,-4.328E-10,1.6156E-10,0.05,179378632.417306,,
3.56,2.8994E-10,-4.5005E-10,1.4961E-10,0.05,172449472.304615,,
3.58,2.8946E-10,-4.5375E-10,1.1395E-10,0.05,172735438.402543,,
3.6,2.9976E-10,-4.6355E-10,1.5568E-10,0.05,166800106.752068,,
3.62,3.0662E-10,-4.6993E-10,1.7299E-10,0.05,163068293.001109,,
3.64,3.2167E-10,-4.7378E-10,1.8849E-10,0.05,155438803.742966,,
3.66,3.3287E-10,-4.8928E-10,1.5384E-10,0.05,150208790.218404,,
3.68,3.371E-10,-4.9716E-10,1.3267E-10,0.05,148323939.483833,,
3.7,3.4502E-10,-5.0783E-10,1.3736E-10,0.05,144919135.122602,,
3.72,3.5083E-10,-5.1019E-10,1.5827E-10,0.05,142519168.828207,,
3.74,3.717E-10,-5.2338E-10,1.888E-10,0.05,134517083.669626,,
3.76,3.7678E-10,-5.2895E-10,1.5815E-10,0.05,132703434.364881,,
3.78,3.9075E-10,-5.4864E-10,1.5211E-10,0.05,127959053.103007,,
3.8,3.9055E-10,-5.5268E-10,1.1517E-10,0.05,128024580.719498,,
3.82,4.0677E-10,-5.6366E-10,1.527E-10,0.05,122919586.006834,,
3.84,4.1101E-10,-5.702E-10,1.6537E-10,0.05,121651541.325029,,
3.86,4.3088E-10,-5.7754E-10,1.9336E-10,0.05,116041589.305607,,
3.88,4.3899E-10,-5.8984E-10,1.5207E-10,0.05,113897810.884075,,
3.9,4.4994E-10,-6.0318E-10,1.3319E-10,0.05,111125927.901498,,
3.92,4.561E-10,-6.141E-10,1.2218E-10,0.05,109625082.218812,,
3.94,4.6331E-10,-6.1985E-10,1.5462E-10,0.05,107919103.839762,,
3.96,4.8432E-10,-6.3409E-10,1.8154E-10,0.05,103237528.906508,,
3.98,4.9179E-10,-6.4101E-10,1.6398E-10,0.05,101669411.740784,,
4,5.0858E-10,-6.6361E-10,1.4941E-10,0.05,98312949.7817453,,
4.02,5.0938E-10,-6.6625E-10,1.1467E-10,0.05,98158545.6829872,,
4.04,5.2688E-10,-6.8283E-10,1.4846E-10,0.05,94898269.0555724,,
4.06,5.3497E-10,-6.8879E-10,1.5981E-10,0.05,93463184.851487,,
4.08,5.5688E-10,-6.9859E-10,1.9232E-10,0.05,89785950.2944979,,
4.1,5.6809E-10,-7.1347E-10,1.4736E-10,0.05,88014223.0984527,,
4.12,5.8141E-10,-7.2977E-10,1.3053E-10,0.05,85997832.8546121,,
4.14,5.9035E-10,-7.423E-10,1.1649E-10,0.05,84695519.6070128,,
4.16,5.9835E-10,-7.5023E-10,1.5089E-10,0.05,83563131.9461854,,
4.18,6.1674E-10,-7.653E-10,1.6997E-10,0.05,81071440.1530629,,
4.2,6.3113E-10,-7.7369E-10,1.6634E-10,0.05,79222981.0023292,,
4.22,6.4769E-10,-7.9654E-10,1.4805E-10,0.05,77197424.6939122,,
4.24,6.529E-10,-8.054E-10,1.1807E-10,0.05,76581406.0346148,,
4.26,6.7062E-10,-8.1772E-10,1.4745E-10,0.05,74557871.8201068,,
4.28,6.8416E-10,-8.3236E-10,1.7033E-10,0.05,73082319.9251637,,
4.3,7.012E-10,-8.4238E-10,1.6864E-10,0.05,71306332.0022818,,
4.32,7.2116E-10,-8.6732E-10,1.4639E-10,0.05,69332741.6939375,,
4.34,7.2476E-10,-8.7549E-10,1.1529E-10,0.05,68988354.7657155,,
4.36,7.4448E-10,-8.9323E-10,1.3854E-10,0.05,67160971.4162906,,
4.38,7.5429E-10,-9.0566E-10,8.957E-11,0.05,66287502.1543438,,
4.4,7.9283E-10,-9.2068E-10,1.203E-10,0.05,63065222.0526468,,
4.42,8.0525E-10,-9.2751E-10,1.2497E-10,0.05,62092517.8515989,,
4.44,8.2892E-10,-9.4573E-10,1.5902E-10,0.05,60319451.8168219,,
4.46,8.3639E-10,-9.6469E-10,1.1634E-10,0.05,59780724.3032557,,
4.48,8.5571E-10,-9.8113E-10,7.721E-11,0.05,58431010.5058957,,
4.5,8.838E-10,-9.935E-10,1.2249E-10,0.05,56573885.4944558,,
4.52,8.9173E-10,-1.0124E-09,1.7313E-10,0.05,56070783.7574154,,
4.54,9.0693E-10,-1.0355E-09,1.32E-10,0.05,55131046.4975246,,
4.56,9.205E-10,-1.0508E-09,1.0802E-10,0.05,54318305.2688756,,
4.58,9.3537E-10,-1.0725E-09,1.2233E-10,0.05,53454782.5993992,,
4.6,9.502E-10,-1.0834E-09,1.3798E-10,0.05,52620500.947169,,
4.62,9.8123E-10,-1.1049E-09,1.7608E-10,0.05,50956452.6155947,,
4.64,9.9418E-10,-1.1244E-09,1.3734E-10,0.05,50292703.5345712,,
4.66,1.01882E-09,-1.1459E-09,9.57E-11,0.05,49076382.4816945,,
4.68,1.0323E-09,-1.1687E-09,1.3826E-10,0.05,48435532.3065,,
4.7,1.04756E-09,-1.1862E-09,1.5496E-10,0.05,47729962.9615487,,
4.72,1.07461E-09,-1.2021E-09,1.6478E-10,0.05,46528508.0168619,,
4.74,1.09919E-09,-1.2339E-09,1.353E-10,0.05,45488041.1939701,,
4.76,1.10928E-09,-1.2483E-09,9.909E-11,0.05,45074282.4174239,,
4.78,1.13422E-09,-1.2721E-09,1.3676E-10,0.05,44083158.4701381,,
4.8,1.15004E-09,-1.2836E-09,1.2163E-10,0.05,43476748.6348301,,
4.82,1.1841E-09,-1.3126E-09,1.0203E-10,0.05,42226163.3307998,,
4.84,1.2075E-09,-1.3386E-09,1.3354E-10,0.05,41407867.494824,,
4.86,1.2249E-09,-1.3594E-09,1.532E-10,0.05,40819658.7476529,,
4.88,1.2585E-09,-1.3804E-09,1.5356E-10,0.05,39729837.1076679,,
4.9,1.286E-09,-1.4152E-09,1.3253E-10,0.05,38880248.8335925,,
4.92,1.2988E-09,-1.4362E-09,9.669E-11,0.05,38497074.2223591,,
4.94,1.3266E-09,-1.4575E-09,1.3886E-10,0.05,37690336.1977989,,
4.96,1.3569E-09,-1.4844E-09,1.706E-10,0.05,36848699.2409168,,
4.98,1.3839E-09,-1.5087E-09,1.3814E-10,0.05,36129778.1631621,,
5,1.415E-09,-1.5402E-09,1.1995E-10,0.05,35335689.0459364,,
5.02,1.4323E-09,-1.567E-09,1.2713E-10,0.05,34908887.8028346,,
5.04,1.458E-09,-1.5908E-09,1.4658E-10,0.05,34293552.8120713,,
5.06,1.4975E-09,-1.6175E-09,1.7654E-10,0.05,33388981.6360601,,
5.08,1.5271E-09,-1.6556E-09,1.3966E-10,0.05,32741798.179556,,
5.1,1.5454E-09,-1.6805E-09,1.0764E-10,0.05,32354083.0852854,,
5.12,1.5804E-09,-1.7138E-09,1.4321E-10,0.05,31637560.1113642,,
5.14,1.6069E-09,-1.7427E-09,1.6192E-10,0.05,31115813.0561952,,
5.16,1.6438E-09,-1.7633E-09,1.4976E-10,0.05,30417325.7087237,,
5.18,1.6816E-09,-1.811E-09,1.3432E-10,0.05,29733587.0599429,,
5.2,1.7045E-09,-1.8397E-09,1.0636E-10,0.05,29334115.5764154,,
5.22,1.736E-09,-1.8689E-09,1.4307E-10,0.05,28801843.3179724,,
5.24,1.7821E-09,-1.9074E-09,1.8151E-10,0.05,28056786.93676,,
5.26,1.8128E-09,-1.9391E-09,1.4142E-10,0.05,27581641.6593116,,
5.28,1.8499E-09,-1.9789E-09,1.2368E-10,0.05,27028488.0263798,,
5.3,1.8842E-09,-2.0149E-09,1.3475E-10,0.05,26536461.097548,,
5.32,1.912E-09,-2.0489E-09,1.5085E-10,0.05,26150627.6150628,,
5.34,1.9614E-09,-2.0856E-09,1.739E-10,0.05,25491995.5134088,,
5.36,2.0026E-09,-2.1348E-09,1.402E-10,0.05,24967542.1951463,,
5.38,2.026E-09,-2.1667E-09,1.0564E-10,0.05,24679170.7798618,,
5.4,2.0703E-09,-2.2076E-09,1.4555E-10,0.05,24151089.2141236,,
5.42,2.1115E-09,-2.2455E-09,1.6892E-10,0.05,23679848.4489699,,
5.44,2.1557E-09,-2.2823E-09,1.4444E-10,0.05,23194322.0299671,,
5.46,2.1935E-09,-2.3275E-09,1.1111E-10,0.05,22794620.4695692,,
5.48,2.2401E-09,-2.3768E-09,1.4196E-10,0.05,22320432.1235659,,
5.5,2.278E-09,-2.4148E-09,1.6349E-10,0.05,21949078.1387182,,
5.52,2.3288E-09,-2.4569E-09,1.5549E-10,0.05,21470285.1253865,,
5.54,2.3795E-09,-2.5097E-09,1.4034E-10,0.05,21012817.8188695,,
5.56,2.4164E-09,-2.555E-09,1.0827E-10,0.05,20691938.4207913,,
5.58,2.4619E-09,-2.5962E-09,1.4731E-10,0.05,20309517.0396848,,
5.6,2.5202E-09,-2.6482E-09,1.8289E-10,0.05,19839695.2622808,,
5.62,2.5664E-09,-2.6958E-09,1.4837E-10,0.05,19482543.6408978,,
5.64,2.6203E-09,-2.7493E-09,1.2186E-10,0.05,19081784.5284891,,
5.66,2.6636E-09,-2.8032E-09,1.3875E-10,0.05,18771587.3254242,,
5.68,2.7132E-09,-2.8505E-09,1.5955E-10,0.05,18428424.0011794,,
5.7,2.7736E-09,-2.8963E-09,1.7574E-10,0.05,18027112.7776175,,
5.72,2.8307E-09,-2.9637E-09,1.4593E-10,0.05,17663475.4654326,,
5.74,2.871E-09,-3.0112E-09,1.0814E-10,0.05,17415534.656914,,
5.76,2.9294E-09,-3.0684E-09,1.4813E-10,0.05,17068341.6399263,,
5.78,2.9958E-09,-3.1269E-09,1.7779E-10,0.05,16690032.7124641,,
5.8,3.0503E-09,-3.1807E-09,1.5508E-10,0.05,16391830.3117726,,
5.82,3.1149E-09,-3.2469E-09,1.3507E-10,0.05,16051879.67511,,
5.84,3.1637E-09,-3.3039E-09,1.2566E-10,0.05,15804279.7989696,,
5.86,3.218E-09,-3.3569E-09,1.513E-10,0.05,15537600.9944065,,
5.88,3.2937E-09,-3.4211E-09,1.8703E-10,0.05,15180496.0986125,,
5.9,3.352E-09,-3.4902E-09,1.4883E-10,0.05,14916467.7804296,,
5.92,3.4095E-09,-3.5495E-09,1.2007E-10,0.05,14664906.8778413,,
5.94,3.4783E-09,-3.6189E-09,1.4723E-10,0.05,14374838.2830693,,
5.96,3.5368E-09,-3.6788E-09,1.6682E-10,0.05,14137073.0603936,,
5.98,3.6153E-09,-3.744E-09,1.7054E-10,0.05,13830110.9174896,,
6,3.6845E-09,-3.8216E-09,1.5208E-10,0.05,13570362.3286742,,
6.02,3.7424E-09,-3.8859E-09,1.1327E-10,0.05,13360410.4318085,,
6.04,3.8077E-09,-3.948E-09,1.5159E-10,0.05,13131286.6034614,,
6.06,3.8923E-09,-4.0283E-09,1.843E-10,0.05,12845875.1894767,,
6.08,3.9668E-09,-4.1006E-09,1.5339E-10,0.05,12604618.3321569,,
6.1,4.0311E-09,-4.1749E-09,1.2209E-10,0.05,12403562.3030934,,
6.12,4.1081E-09,-4.2538E-09,1.4771E-10,0.05,12171076.6534408,,
6.14,4.1839E-09,-4.3264E-09,1.7397E-10,0.05,11950572.4324195,,
6.16,4.2645E-09,-4.3979E-09,1.6812E-10,0.05,11724703.9512252,,
6.18,4.3513E-09,-4.4859E-09,1.5104E-10,0.05,11490818.8357502,,
6.2,4.4182E-09,-4.5632E-09,1.187E-10,0.05,11316825.8566837,,
6.22,4.5124E-09,-4.6397E-09,1.7995E-10,0.05,11080577.9629465,,
6.24,4.5887E-09,-4.7249E-09,1.5202E-10,0.05,10896332.2945497,,
6.26,4.6815E-09,-4.8111E-09,1.3204E-10,0.05,10680337.498665,,
6.28,4.7715E-09,-4.898E-09,1.5299E-10,0.05,10478885.046631,,
6.3,4.8497E-09,-4.9824E-09,1.8862E-10,0.05,10309916.0772831,,
6.32,4.9389E-09,-5.0774E-09,1.5116E-10,0.05,10123711.7576788,,
6.34,5.0153E-09,-5.1579E-09,1.1865E-10,0.05,9969493.35034794,,
6.36,5.1241E-09,-5.2492E-09,1.6896E-10,0.05,9757811.12780781,,
6.38,5.2006E-09,-5.3309E-09,1.5966E-10,0.05,9614275.2759297,,
6.4,5.2978E-09,-5.4292E-09,1.4974E-10,0.05,9437879.87466496,,
