Vg,Id,Is,Ig,Vd,Rt,Ib,I_handle
0,4.66E-12,-6.9303E-10,6.7531E-10,0.05,10729613733.9056,,
0.02,3.07E-12,-3.4992E-09,3.5057E-09,0.05,16286644951.1401,,
0.04,6.28E-12,-6.1735E-09,6.1949E-09,0.05,7961783439.49045,,
0.06,2.73E-12,-8.6109E-09,8.6261E-09,0.05,18315018315.0183,,
0.08,2.79E-12,-1.07574E-08,1.07436E-08,0.05,17921146953.405,,
0.1,-1.456E-11,-1.26854E-08,1.26241E-08,0.05,-3434065934.06593,,
0.12,-5.54E-12,-1.4268E-08,1.4232E-08,0.05,-9025270758.12274,,
0.14,-3.78E-12,-1.5758E-08,1.57184E-08,0.05,-13227513227.5132,,
0.16,-5.45E-12,-1.70942E-08,1.70392E-08,0.05,-9174311926.60551,,
0.18,3.28E-12,-1.83408E-08,1.82807E-08,0.05,15243902439.0244,,
0.2,1.128E-11,-1.9537E-08,1.94671E-08,0.05,4432624113.47518,,
0.22,1.956E-11,-2.0683E-08,2.06366E-08,0.05,2556237218.81391,,
0.24,1.913E-11,-2.18002E-08,2.17048E-08,0.05,2613695765.81286,,
0.26,-3E-12,-2.28042E-08,2.2753E-08,0.05,-16666666666.6667,,
0.28,1.621E-11,-2.38306E-08,2.38113E-08,0.05,3084515731.03023,,
0.3,7.11E-12,-2.50004E-08,2.49113E-08,0.05,7032348804.5007,,
0.32,4.82E-12,-2.59896E-08,2.59782E-08,0.05,10373443983.4025,,
0.34,6.69E-12,-2.70756E-08,2.69959E-08,0.05,7473841554.55904,,
0.36,-3.7E-12,-2.80744E-08,2.80355E-08,0.05,-13513513513.5135,,
0.38,1.057E-11,-2.90648E-08,2.90168E-08,0.05,4730368968.77956,,
0.4,4.63E-12,-3.01174E-08,3.00367E-08,0.05,10799136069.1145,,
0.42,3.28E-12,-3.09898E-08,3.09786E-08,0.05,15243902439.0244,,
0.44,-8.65E-12,-3.19714E-08,3.18895E-08,0.05,-5780346820.80925,,
0.46,-1.091E-11,-3.2898E-08,3.29009E-08,0.05,-4582951420.71494,,
0.48,2.9E-12,-3.39218E-08,3.38306E-08,0.05,17241379310.3448,,
0.5,2.46E-11,-3.47838E-08,3.47832E-08,0.05,2032520325.20325,,
0.52,1.5E-11,-3.56922E-08,3.57144E-08,0.05,3333333333.33333,,
0.54,-1.195E-11,-3.66582E-08,3.67651E-08,0.05,-4184100418.41004,,
0.56,-9.31E-12,-3.76558E-08,3.75948E-08,0.05,-5370569280.34372,,
0.58,-3.389E-11,-3.85004E-08,3.84267E-08,0.05,-1475361463.55857,,
0.6,-4.71E-12,-3.93184E-08,3.92022E-08,0.05,-10615711252.6539,,
0.62,-6.14E-12,-4.0136E-08,4.00797E-08,0.05,-8143322475.57003,,
0.64,-1.132E-11,-4.09748E-08,4.08968E-08,0.05,-4416961130.74205,,
0.66,-6.8E-13,-4.17452E-08,4.18372E-08,0.05,-73529411764.7059,,
0.68,-5.628E-11,-4.26972E-08,4.26577E-08,0.05,-888415067.519545,,
0.7,-1.703E-11,-4.35334E-08,4.34213E-08,0.05,-2935995302.40752,,
0.72,2.153E-11,-4.4332E-08,4.4265E-08,0.05,2322340919.647,,
0.74,3.999E-11,-4.5189E-08,4.51006E-08,0.05,1250312578.14454,,
0.76,-5.08E-12,-4.58284E-08,4.58339E-08,0.05,-9842519685.03937,,
0.78,-6.19E-12,-4.6721E-08,4.66584E-08,0.05,-8077544426.49435,,
0.8,-1.018E-11,-4.73838E-08,4.73602E-08,0.05,-4911591355.59921,,
0.82,1.46E-12,-4.81466E-08,4.81282E-08,0.05,34246575342.4658,,
0.84,3.713E-11,-4.89904E-08,4.89794E-08,0.05,1346619983.84056,,
0.86,5.004E-11,-4.97392E-08,4.97502E-08,0.05,999200639.488409,,
0.88,6.26E-12,-5.0557E-08,5.04574E-08,0.05,7987220447.28434,,
0.9,-5.429E-11,-5.11554E-08,5.1205E-08,0.05,-920979922.637686,,
0.92,7.642E-11,-5.21694E-08,5.19628E-08,0.05,654278984.559016,,
0.94,-1.4615E-10,-5.27832E-08,5.27331E-08,0.05,-342114266.164899,,
0.96,-7.06E-12,-5.34052E-08,5.34108E-08,0.05,-7082152974.50425,,
0.98,-1.529E-11,-5.42566E-08,5.42363E-08,0.05,-3270111183.78025,,
1,-3.005E-11,-5.48268E-08,5.48717E-08,0.05,-1663893510.81531,,
1.02,-7.1E-13,-5.55048E-08,5.53899E-08,0.05,-70422535211.2676,,
1.04,-7.63E-12,-5.61426E-08,5.61552E-08,0.05,-6553079947.57536,,
1.06,1.986E-11,-5.68922E-08,5.68566E-08,0.05,2517623363.54481,,
1.08,7.17E-12,-5.77186E-08,5.74589E-08,0.05,6973500697.35007,,
1.1,1.391E-11,-5.81846E-08,5.82355E-08,0.05,3594536304.81668,,
1.12,2.17E-12,-5.89722E-08,5.89381E-08,0.05,23041474654.3779,,
1.14,2.474E-11,-5.97414E-08,5.97065E-08,0.05,2021018593.37106,,
1.16,-1.335E-11,-6.0335E-08,6.04357E-08,0.05,-3745318352.05993,,
1.18,3.622E-11,-6.106E-08,6.10617E-08,0.05,1380452788.51463,,
1.2,9.6E-13,-6.1501E-08,6.14849E-08,0.05,52083333333.3333,,
1.22,-1.04E-11,-6.22788E-08,6.2227E-08,0.05,-4807692307.69231,,
1.24,1.63E-11,-6.2987E-08,6.29452E-08,0.05,3067484662.57669,,
1.26,9.19E-12,-6.35158E-08,6.35416E-08,0.05,5440696409.14037,,
1.28,-8.9E-13,-6.42056E-08,6.42353E-08,0.05,-56179775280.8989,,
1.3,2.389E-11,-6.48798E-08,6.47754E-08,0.05,2092925910.42277,,
1.32,-1.854E-11,-6.55108E-08,6.55439E-08,0.05,-2696871628.91046,,
1.34,2.203E-11,-6.6181E-08,6.61183E-08,0.05,2269632319.56423,,
1.36,-2.91E-11,-6.68154E-08,6.67189E-08,0.05,-1718213058.41924,,
1.38,2.75E-12,-6.74398E-08,6.74049E-08,0.05,18181818181.8182,,
1.4,1.614E-11,-6.7957E-08,6.79151E-08,0.05,3097893432.46592,,
1.42,-7.56E-12,-6.8555E-08,6.85569E-08,0.05,-6613756613.75661,,
1.44,9.44E-12,-6.9258E-08,6.92386E-08,0.05,5296610169.49153,,
1.46,1.122E-11,-6.99254E-08,6.99285E-08,0.05,4456327985.73975,,
1.48,-1.227E-11,-7.05362E-08,7.04462E-08,0.05,-4074979625.10187,,
1.5,2.82E-12,-7.11426E-08,7.10904E-08,0.05,17730496453.9007,,
1.52,2.895E-11,-7.16662E-08,7.16761E-08,0.05,1727115716.75302,,
1.54,1.25E-12,-7.22444E-08,7.22517E-08,0.05,40000000000,,
1.56,2.059E-11,-7.2985E-08,7.29781E-08,0.05,2428363283.14716,,
1.58,4.019E-11,-7.35572E-08,7.35961E-08,0.05,1244090569.79348,,
1.6,8.19E-12,-7.43516E-08,7.42009E-08,0.05,6105006105.0061,,
1.62,-1.072E-11,-7.46516E-08,7.46898E-08,0.05,-4664179104.47761,,
1.64,1.725E-11,-7.52932E-08,7.52574E-08,0.05,2898550724.63768,,
1.66,-8.4E-13,-7.59554E-08,7.58186E-08,0.05,-59523809523.8095,,
1.68,-2.563E-11,-7.64732E-08,7.64141E-08,0.05,-1950838860.71011,,
1.7,8.7E-12,-7.71266E-08,7.70201E-08,0.05,5747126436.78161,,
1.72,5.37E-12,-7.75328E-08,7.75712E-08,0.05,9310986964.61825,,
1.74,1.62E-12,-7.79116E-08,7.7944E-08,0.05,30864197530.8642,,
1.76,-4.27E-12,-7.86464E-08,7.86366E-08,0.05,-11709601873.5363,,
1.78,4.16E-12,-7.9307E-08,7.94395E-08,0.05,12019230769.2308,,
1.8,3.334E-11,-8.00736E-08,7.98584E-08,0.05,1499700059.988,,
1.82,7.3E-13,-8.00812E-08,8.02349E-08,0.05,68493150684.9315,,
1.84,1.012E-11,-8.10596E-08,8.10076E-08,0.05,4940711462.45059,,
1.86,-3.288E-11,-8.16364E-08,8.16751E-08,0.05,-1520681265.20681,,
1.88,6.76E-12,-8.21776E-08,8.21862E-08,0.05,7396449704.14201,,
1.9,1.813E-11,-8.28488E-08,8.27148E-08,0.05,2757859900.71704,,
1.92,4.65E-12,-8.32624E-08,8.32309E-08,0.05,10752688172.043,,
1.94,3.51E-12,-8.38388E-08,8.38303E-08,0.05,14245014245.0142,,
1.96,-1.917E-11,-8.4377E-08,8.43401E-08,0.05,-2608242044.86176,,
1.98,2.187E-11,-8.50446E-08,8.49831E-08,0.05,2286236854.13809,,
2,-1.669E-11,-8.54056E-08,8.54E-08,0.05,-2995805871.77951,,
2.02,3.149E-11,-8.59324E-08,8.60592E-08,0.05,1587805652.58812,,
2.04,-1.846E-11,-8.67004E-08,8.66568E-08,0.05,-2708559046.58722,,
2.06,-3.845E-11,-8.71172E-08,8.7164E-08,0.05,-1300390117.03511,,
2.08,5.05E-12,-8.75988E-08,8.74524E-08,0.05,9900990099.0099,,
2.1,8.18E-12,-8.80412E-08,8.80979E-08,0.05,6112469437.65281,,
2.12,1.29E-12,-8.86174E-08,8.88075E-08,0.05,38759689922.4806,,
2.14,5.134E-11,-8.95314E-08,8.93784E-08,0.05,973899493.572263,,
2.16,2.861E-11,-8.99298E-08,8.98964E-08,0.05,1747640685.07515,,
2.18,-1.172E-11,-9.04504E-08,9.04311E-08,0.05,-4266211604.09556,,
2.2,2.444E-11,-9.10406E-08,9.08365E-08,0.05,2045826513.91162,,
2.22,-1.315E-11,-9.15632E-08,9.15219E-08,0.05,-3802281368.82129,,
2.24,1.882E-11,-9.22108E-08,9.21418E-08,0.05,2656748140.2763,,
2.26,9.49E-12,-9.25614E-08,9.25309E-08,0.05,5268703898.84089,,
2.28,-1.25E-11,-9.33252E-08,9.31757E-08,0.05,-4000000000,,
2.3,-2.89E-11,-9.3677E-08,9.37635E-08,0.05,-1730103806.22837,,
2.32,9.69E-12,-9.40612E-08,9.4163E-08,0.05,5159958720.33024,,
2.34,-5.91E-12,-9.46674E-08,9.47674E-08,0.05,-8460236886.63283,,
2.36,-1.672E-11,-9.52356E-08,9.52902E-08,0.05,-2990430622.00957,,
2.38,8.1E-13,-9.57558E-08,9.56852E-08,0.05,61728395061.7284,,
2.4,-4.2E-13,-9.64144E-08,9.64462E-08,0.05,-119047619047.619,,
2.42,1.074E-11,-9.6918E-08,9.70143E-08,0.05,4655493482.30912,,
2.44,2.728E-11,-9.74744E-08,9.74836E-08,0.05,1832844574.78006,,
2.46,-4.22E-12,-9.7753E-08,9.78889E-08,0.05,-11848341232.2275,,
2.48,1.667E-11,-9.84358E-08,9.83705E-08,0.05,2999400119.976,,
2.5,1.579E-11,-9.88186E-08,9.87713E-08,0.05,3166561114.62951,,
2.52,-2.26E-12,-9.92646E-08,9.93218E-08,0.05,-22123893805.3097,,
2.54,-3.366E-11,-9.97878E-08,9.98091E-08,0.05,-1485442661.91325,,
2.56,-3.84E-12,-1.00083E-07,1.000015E-07,0.05,-13020833333.3333,,
2.58,2.58E-11,-1.000996E-07,1.000015E-07,0.05,1937984496.12403,,
2.6,1.472E-11,-1.000244E-07,1.000015E-07,0.05,3396739130.43478,,
2.62,-2.083E-11,-1.000306E-07,1.000018E-07,0.05,-2400384061.44983,,
2.64,8.46E-12,-9.99632E-08,1.000015E-07,0.05,5910165484.63357,,
2.66,-6.46E-12,-1.001132E-07,1.000012E-07,0.05,-7739938080.49536,,
2.68,3.658E-11,-1.000208E-07,1.000014E-07,0.05,1366867140.51394,,
2.7,1.931E-11,-1.000552E-07,1.000014E-07,0.05,2589331952.35629,,
2.72,1.912E-11,-9.99916E-08,1.000019E-07,0.05,2615062761.50628,,
2.74,-1.362E-11,-9.99876E-08,1.000014E-07,0.05,-3671071953.01028,,
2.76,1.07E-12,-1.00037E-07,1.000016E-07,0.05,46728971962.6168,,
2.78,-1.397E-11,-9.99996E-08,1.000014E-07,0.05,-3579098067.28704,,
2.8,-5.364E-11,-1.000582E-07,1.000019E-07,0.05,-932140193.88516,,
2.82,-2.008E-11,-1.000312E-07,1.000012E-07,0.05,-2490039840.63745,,
2.84,-2.279E-11,-1.000536E-07,1.00002E-07,0.05,-2193944712.59324,,
2.86,-1.117E-11,-1.000464E-07,1.000012E-07,0.05,-4476275738.5855,,
2.88,-1.321E-11,-1.000336E-07,1.000015E-07,0.05,-3785011355.03407,,
2.9,-3.098E-11,-1.001154E-07,1.000015E-07,0.05,-1613944480.30988,,
2.92,-5.2E-13,-1.000484E-07,1.000012E-07,0.05,-96153846153.8462,,
2.94,-1.348E-11,-1.00062E-07,1.000014E-07,0.05,-3709198813.05638,,
2.96,-8.95E-12,-1.000334E-07,1.000012E-07,0.05,-5586592178.77095,,
2.98,4.81E-12,-1.00076E-07,1.000015E-07,0.05,10395010395.0104,,
3,-1.161E-11,-1.000618E-07,1.000012E-07,0.05,-4306632213.60896,,
3.02,1.753E-11,-9.99218E-08,1.000015E-07,0.05,2852253280.09127,,
3.04,1.73E-12,-1.000428E-07,1.000015E-07,0.05,28901734104.0462,,
3.06,-2.424E-11,-9.99848E-08,1.000013E-07,0.05,-2062706270.62706,,
3.08,4.718E-11,-1.001018E-07,1.000012E-07,0.05,1059771089.44468,,
3.1,4.25E-12,-1.000028E-07,1.000016E-07,0.05,11764705882.3529,,
3.12,7.29E-12,-1.001084E-07,1.000012E-07,0.05,6858710562.41427,,
3.14,6.82E-12,-9.99378E-08,1.000012E-07,0.05,7331378299.12023,,
3.16,3.354E-11,-9.9953E-08,1.000015E-07,0.05,1490757304.71079,,
3.18,-9.87E-12,-1.000498E-07,1.00002E-07,0.05,-5065856129.68592,,
3.2,-1.394E-11,-1.000128E-07,1.000018E-07,0.05,-3586800573.88809,,
3.22,7.84E-12,-9.99886E-08,1.000016E-07,0.05,6377551020.40816,,
3.24,-2E-11,-9.99724E-08,1.000018E-07,0.05,-2500000000,,
3.26,1.54E-11,-9.99174E-08,1.000015E-07,0.05,3246753246.75325,,
3.28,3.561E-11,-9.99606E-08,1.000012E-07,0.05,1404099971.918,,
3.3,-1.301E-11,-1.000132E-07,1.000018E-07,0.05,-3843197540.35357,,
3.32,1.595E-11,-9.99576E-08,1.000018E-07,0.05,3134796238.24451,,
3.34,1.53E-12,-9.9987E-08,1.000016E-07,0.05,32679738562.0915,,
3.36,2.546E-11,-9.99918E-08,1.000015E-07,0.05,1963864886.09584,,
3.38,8.32E-12,-9.9979E-08,1.000015E-07,0.05,6009615384.61539,,
3.4,1.079E-11,-1.000398E-07,1.000016E-07,0.05,4633920296.5709,,
3.42,-2.045E-11,-1.0013E-07,1.000016E-07,0.05,-2444987775.06112,,
3.44,3.56E-11,-1.000132E-07,1.000015E-07,0.05,1404494382.02247,,
3.46,1.328E-11,-1.001486E-07,1.000015E-07,0.05,3765060240.96386,,
3.48,1.456E-11,-9.9951E-08,1.000015E-07,0.05,3434065934.06593,,
3.5,-1.896E-11,-1.000062E-07,1.000017E-07,0.05,-2637130801.68776,,
3.52,8.26E-12,-1.000064E-07,1.000018E-07,0.05,6053268765.13317,,
3.54,-1.8E-13,-9.9999E-08,1.000015E-07,0.05,-277777777777.778,,
3.56,9.54E-12,-9.99788E-08,1.000017E-07,0.05,5241090146.75052,,
3.58,2.054E-11,-9.99972E-08,1.00002E-07,0.05,2434274586.17332,,
3.6,1.454E-11,-1.000056E-07,1.000019E-07,0.05,3438789546.07978,,
3.62,-3.87E-12,-1.0005E-07,1.000016E-07,0.05,-12919896640.8269,,
3.64,2.753E-11,-1.00013E-07,1.000012E-07,0.05,1816200508.53614,,
3.66,3.3E-12,-9.99824E-08,1.000014E-07,0.05,15151515151.5152,,
3.68,2.664E-11,-9.99746E-08,1.000015E-07,0.05,1876876876.87688,,
3.7,5.18E-12,-1.000322E-07,1.000015E-07,0.05,9652509652.50965,,
3.72,4.956E-11,-1.00022E-07,1.000015E-07,0.05,1008878127.5222,,
3.74,3.119E-11,-9.99728E-08,1.000019E-07,0.05,1603077909.58641,,
3.76,2.732E-11,-1.0001E-07,1.000017E-07,0.05,1830161054.17277,,
3.78,-2.204E-11,-1.000394E-07,1.000015E-07,0.05,-2268602540.83485,,
3.8,-2.315E-11,-1.000842E-07,1.000021E-07,0.05,-2159827213.82289,,
3.82,-1.569E-11,-9.99472E-08,1.000013E-07,0.05,-3186743148.50223,,
3.84,3.664E-11,-9.99666E-08,1.000013E-07,0.05,1364628820.9607,,
3.86,3.837E-11,-1.00054E-07,1.000016E-07,0.05,1303101381.28746,,
3.88,1.462E-11,-1.000626E-07,1.000012E-07,0.05,3419972640.21888,,
3.9,6.87E-12,-9.9979E-08,1.00002E-07,0.05,7278020378.45706,,
3.92,-1.29E-12,-9.99974E-08,1.000016E-07,0.05,-38759689922.4806,,
3.94,-1.084E-11,-1.000212E-07,1.000015E-07,0.05,-4612546125.46125,,
3.96,-2.354E-11,-1.00085E-07,1.000013E-07,0.05,-2124044180.11895,,
3.98,1.612E-11,-9.9982E-08,1.000018E-07,0.05,3101736972.70471,,
4,1.509E-11,-9.99738E-08,1.000016E-07,0.05,3313452617.62757,,
4.02,-1.601E-11,-1.00072E-07,1.000015E-07,0.05,-3123048094.94066,,
4.04,-1.212E-11,-1.000484E-07,1.000012E-07,0.05,-4125412541.25413,,
4.06,1.461E-11,-1.000208E-07,1.000015E-07,0.05,3422313483.91513,,
4.08,1.452E-11,-9.99766E-08,1.000018E-07,0.05,3443526170.7989,,
4.1,3.111E-11,-1.000242E-07,1.000012E-07,0.05,1607200257.15204,,
4.12,-2.4E-11,-9.99754E-08,1.00002E-07,0.05,-2083333333.33333,,
4.14,-7.89E-12,-9.9893E-08,1.000016E-07,0.05,-6337135614.70215,,
4.16,-4.859E-11,-1.000452E-07,1.000014E-07,0.05,-1029018316.52603,,
4.18,-9.59E-12,-9.9924E-08,1.000015E-07,0.05,-5213764337.85193,,
4.2,-1.038E-11,-9.99858E-08,1.000016E-07,0.05,-4816955684.00771,,
4.22,1.56E-12,-1.000242E-07,1.000018E-07,0.05,32051282051.282,,
4.24,-1.84E-12,-1.000568E-07,1.000012E-07,0.05,-27173913043.4783,,
4.26,2.181E-11,-1.00034E-07,1.000015E-07,0.05,2292526364.05319,,
4.28,-7.88E-12,-1.000002E-07,1.000016E-07,0.05,-6345177664.97462,,
4.3,3.3E-13,-1.000006E-07,1.000015E-07,0.05,151515151515.152,,
4.32,5.912E-11,-9.9987E-08,1.000015E-07,0.05,845737483.08525,,
4.34,1.864E-11,-1.000512E-07,1.000018E-07,0.05,2682403433.47639,,
4.36,-1.414E-11,-9.99738E-08,1.000016E-07,0.05,-3536067892.50354,,
4.38,2.159E-11,-1.000998E-07,1.000015E-07,0.05,2315886984.71515,,
4.4,1.426E-11,-9.99784E-08,1.000015E-07,0.05,3506311360.44881,,
4.42,5.01E-12,-1.000026E-07,1.000018E-07,0.05,9980039920.15968,,
4.44,1.57E-12,-1.000608E-07,1.000015E-07,0.05,31847133757.9618,,
4.46,4.213E-11,-9.99556E-08,1.000018E-07,0.05,1186802753.38239,,
4.48,2.181E-11,-1.000312E-07,1.000018E-07,0.05,2292526364.05319,,
4.5,-1.211E-11,-1.000186E-07,1.000016E-07,0.05,-4128819157.72089,,
4.52,-2.5E-11,-9.99844E-08,1.000017E-07,0.05,-2000000000,,
4.54,5.05E-12,-1.000162E-07,1.000017E-07,0.05,9900990099.0099,,
4.56,8.82E-12,-9.99624E-08,1.000014E-07,0.05,5668934240.36281,,
4.58,4.19E-12,-1.000636E-07,1.000016E-07,0.05,11933174224.3437,,
4.6,-1.692E-11,-9.99758E-08,1.000017E-07,0.05,-2955082742.31678,,
4.62,-1.113E-11,-1.000266E-07,1.000018E-07,0.05,-4492362982.92902,,
4.64,-1.314E-11,-1.000386E-07,1.000018E-07,0.05,-3805175038.05175,,
4.66,-2.31E-12,-9.99796E-08,1.000013E-07,0.05,-21645021645.0216,,
4.68,7.43E-12,-9.99788E-08,1.000017E-07,0.05,6729475100.94213,,
4.7,-2.11E-11,-1.000238E-07,1.000018E-07,0.05,-2369668246.4455,,
4.72,-1.344E-11,-1.000342E-07,1.000015E-07,0.05,-3720238095.2381,,
4.74,-3.465E-11,-9.99986E-08,1.00002E-07,0.05,-1443001443.00144,,
4.76,1.133E-11,-1.000718E-07,1.000018E-07,0.05,4413062665.48985,,
4.78,2.9E-12,-1.000572E-07,1.000015E-07,0.05,17241379310.3448,,
4.8,6.59E-12,-9.99532E-08,1.000018E-07,0.05,7587253414.26404,,
4.82,-9.07E-12,-1.001048E-07,1.000012E-07,0.05,-5512679162.07277,,
4.84,5.17E-12,-9.99432E-08,1.000014E-07,0.05,9671179883.94584,,
4.86,-1.196E-11,-1.000402E-07,1.000015E-07,0.05,-4180602006.68896,,
4.88,3.874E-11,-1.000264E-07,1.000014E-07,0.05,1290655653.07176,,
4.9,-2.541E-11,-1.000302E-07,1.000018E-07,0.05,-1967729240.45651,,
4.92,1.12E-11,-1.000136E-07,1.000017E-07,0.05,4464285714.28571,,
4.94,-2.378E-11,-9.99552E-08,1.000018E-07,0.05,-2102607232.96888,,
4.96,-2.453E-11,-9.99492E-08,1.000015E-07,0.05,-2038320423.97065,,
4.98,-3.85E-12,-9.99748E-08,1.000014E-07,0.05,-12987012987.013,,
5,-5.9E-12,-1.000034E-07,1.000016E-07,0.05,-8474576271.18644,,
5.02,-2.209E-11,-1.000556E-07,1.000015E-07,0.05,-2263467632.41286,,
5.04,4.7E-12,-1.000348E-07,1.000019E-07,0.05,10638297872.3404,,
5.06,-6.25E-12,-9.99966E-08,1.000017E-07,0.05,-8000000000,,
5.08,2.614E-11,-1.000432E-07,1.00002E-07,0.05,1912777352.71614,,
5.1,1.482E-11,-1.000006E-07,1.000015E-07,0.05,3373819163.29285,,
5.12,1.011E-11,-1.000366E-07,1.00002E-07,0.05,4945598417.40851,,
5.14,5.72E-12,-1.00101E-07,1.000015E-07,0.05,8741258741.25874,,
5.16,1.789E-11,-9.99608E-08,1.000012E-07,0.05,2794857462.26942,,
5.18,2.652E-11,-1.000254E-07,1.000012E-07,0.05,1885369532.42836,,
5.2,-1.018E-11,-1.000566E-07,1.000015E-07,0.05,-4911591355.59921,,
5.22,2.248E-11,-9.99356E-08,1.000018E-07,0.05,2224199288.25623,,
5.24,3.49E-12,-1.000544E-07,1.000016E-07,0.05,14326647564.4699,,
5.26,-4.04E-12,-9.9976E-08,1.000015E-07,0.05,-12376237623.7624,,
5.28,1.085E-11,-9.99886E-08,1.000018E-07,0.05,4608294930.87558,,
5.3,-6.31E-12,-9.99844E-08,1.000016E-07,0.05,-7923930269.41363,,
5.32,3.666E-11,-1.000726E-07,1.000018E-07,0.05,1363884342.60775,,
5.34,8.14E-12,-1.000178E-07,1.000012E-07,0.05,6142506142.50614,,
5.36,-2.162E-11,-9.99468E-08,1.000018E-07,0.05,-2312673450.50879,,
5.38,-6.15E-12,-1.000108E-07,1.000015E-07,0.05,-8130081300.81301,,
5.4,2.537E-11,-1.000026E-07,1.000019E-07,0.05,1970831690.97359,,
5.42,-3.428E-11,-1.000566E-07,1.000016E-07,0.05,-1458576429.4049,,
5.44,7.24E-12,-1.000188E-07,1.000019E-07,0.05,6906077348.0663,,
5.46,1.959E-11,-9.9998E-08,1.000015E-07,0.05,2552322613.57836,,
5.48,-3.12E-12,-9.99936E-08,1.000014E-07,0.05,-16025641025.641,,
5.5,3.238E-11,-9.99684E-08,1.000018E-07,0.05,1544163063.61952,,
5.52,2.78E-12,-1.00007E-07,1.000021E-07,0.05,17985611510.7914,,
5.54,3.151E-11,-9.9977E-08,1.000016E-07,0.05,1586797841.95493,,
5.56,-3.282E-11,-1.000348E-07,1.000018E-07,0.05,-1523461304.08288,,
5.58,1.442E-11,-9.99828E-08,1.000018E-07,0.05,3467406380.02774,,
5.6,2.72E-12,-9.99158E-08,1.000017E-07,0.05,18382352941.1765,,
5.62,8.2E-13,-9.99928E-08,1.000021E-07,0.05,60975609756.0976,,
5.64,-3.16E-12,-9.98848E-08,1.000014E-07,0.05,-15822784810.1266,,
5.66,2.18E-11,-9.99794E-08,1.000018E-07,0.05,2293577981.65138,,
5.68,-1.958E-11,-1.000406E-07,1.000018E-07,0.05,-2553626149.13177,,
5.7,4.023E-11,-1.000904E-07,1.000014E-07,0.05,1242853591.84688,,
5.72,1.071E-11,-1.000182E-07,1.000015E-07,0.05,4668534080.29879,,
5.74,8.5E-13,-1.000476E-07,1.000016E-07,0.05,58823529411.7647,,
5.76,2.182E-11,-1.000324E-07,1.000012E-07,0.05,2291475710.35747,,
5.78,-2.411E-11,-9.99312E-08,1.000012E-07,0.05,-2073828287.01783,,
5.8,1.158E-11,-1.000812E-07,1.000015E-07,0.05,4317789291.88256,,
5.82,-1.187E-11,-1.000456E-07,1.000018E-07,0.05,-4212299915.754,,
5.84,-1.008E-11,-1.000772E-07,1.000015E-07,0.05,-4960317460.31746,,
5.86,-2.08E-12,-1.000208E-07,1.000017E-07,0.05,-24038461538.4615,,
5.88,3.25E-12,-1.000272E-07,1.000015E-07,0.05,15384615384.6154,,
5.9,2.349E-11,-1.00042E-07,1.000015E-07,0.05,2128565346.95615,,
5.92,-2E-13,-9.99478E-08,1.000011E-07,0.05,-250000000000,,
5.94,-1.814E-11,-1.000408E-07,1.000018E-07,0.05,-2756339581.03638,,
5.96,-2.654E-11,-9.99288E-08,1.000017E-07,0.05,-1883948756.59382,,
5.98,-6.93E-12,-1.000318E-07,1.000017E-07,0.05,-7215007215.00721,,
6,-1.792E-11,-1.001076E-07,1.000018E-07,0.05,-2790178571.42857,,
6.02,-5.9E-13,-9.99314E-08,1.000014E-07,0.05,-84745762711.8644,,
6.04,-1.124E-11,-9.99406E-08,1.000017E-07,0.05,-4448398576.51246,,
6.06,-6.7E-12,-1.001276E-07,1.000016E-07,0.05,-7462686567.16418,,
