Vg,Id,Is,Ig,Vd,Rt,Drain Current (nA),|IG| (pA),gm
0.0,9.44e-12,-5.25e-12,2.413e-11,0.05,5296610169.49153,0.00944,24.130000000000003,-9.2e-11
0.02,7.6e-12,-1.196e-11,2.2e-13,0.05,6578947368.42105,0.0076,0.22,-2.3225e-10
0.04,1.5e-13,-1.244e-11,-1.895e-11,0.05,333333333333.333,0.00015,18.95,-2.8500000000000005e-10
0.06,-3.8e-12,-1.467e-11,-1.375e-11,0.05,-13157894736.8421,-0.0038,13.75,-2.7024999999999997e-10
0.08,-1.066e-11,-8.67e-12,1.737e-11,0.05,-4690431519.69981,-0.010660000000000001,17.37,2.4999999999999978e-11
0.1,-2.8e-12,-1.313e-11,5.433e-11,0.05,-17857142857.1429,-0.0028,54.33,2.449999999999971e-11
0.12,-9.68e-12,-1.021e-11,2.899e-11,0.05,-5165289256.19835,-0.009680000000000001,28.990000000000002,-1.5275000000000022e-10
0.14,-8.91e-12,-2.121e-11,2.232e-11,0.05,-5611672278.33894,-0.00891,22.32,-3.092500000000005e-10
0.16,-2.205e-11,-1.572e-11,-1.303e-11,0.05,-2267573696.14512,-0.02205,13.03,-2.5875000000000017e-10
0.18,-1.926e-11,-1.858e-11,3.728e-11,0.05,-2596053997.92316,-0.01926,37.28,-8.949999999999954e-11
0.2,-2.563e-11,-1.495e-11,5.123e-11,0.05,-1950838860.71011,-0.02563,51.23,-2.649999999999965e-11
0.22,-2.032e-11,-1.309e-11,8.072e-11,0.05,-2460629921.25984,-0.02032,80.72,6.87500000000001e-11
0.24,-2.288e-11,-1.861e-11,4.323e-11,0.05,-2185314685.31469,-0.02288,43.230000000000004,-1.9649999999999979e-10
0.26,-2.818e-11,-1.999e-11,2.514e-11,0.05,-1774308019.87225,-0.02818,25.14,-2.497499999999998e-10
0.28,-3.287e-11,-2.236e-11,2.663e-11,0.05,-1521143900.21296,-0.032869999999999996,26.63,-2.392500000000001e-10
0.3,-3.775e-11,-1.377e-11,5.761e-11,0.05,-1324503311.25828,-0.03775,57.61,6.149999999999912e-11
0.32,-3.041e-11,-2.202e-11,9.094e-11,0.05,-1644195988.16179,-0.030410000000000003,90.94,-2.5249999999999887e-11
0.34,-3.876e-11,-1.745e-11,6.478e-11,0.05,-1289989680.08256,-0.038759999999999996,64.78,-1.7124999999999938e-10
0.36,-3.726e-11,-2.847e-11,5.834e-11,0.05,-1341921631.7767,-0.03726,58.34,-3.0399999999999895e-10
0.38,-5.092e-11,-2.207e-11,2.627e-11,0.05,-981932443.047918,-0.05092,26.27,-2.2399999999999985e-10
0.4,-4.622e-11,-2.589e-11,7.018e-11,0.05,-1081782778.01817,-0.046220000000000004,70.17999999999999,-4.050000000000084e-11
0.42,-5.254e-11,-2.016e-11,8.277e-11,0.05,-951655881.233346,-0.05254,82.77,-2.0000000000006135e-12
0.44,-4.63e-11,-2.06e-11,1.1721e-10,0.05,-1079913606.91145,-0.0463,117.21000000000001,5.0249999999999904e-11
0.46,-5.053e-11,-2.18e-11,7.791e-11,0.05,-989511181.476351,-0.05053,77.91000000000001,-1.6875000000000006e-10
0.48,-5.305e-11,-2.519e-11,4.62e-11,0.05,-942507068.803016,-0.05305,46.2,-2.1650000000000003e-10
0.5,-5.919e-11,-2.838e-11,7.648e-11,0.05,-844737286.703835,-0.059190000000000006,76.48,-2.7324999999999965e-10
0.52,-6.398e-11,-2.071e-11,9.215e-11,0.05,-781494216.942795,-0.06398,92.15,7.07500000000002e-11
0.54,-5.636e-11,-2.551e-11,1.2997e-10,0.05,-887154009.936125,-0.05636,129.97,1.7499999999997096e-12
0.56,-6.391e-11,-2.399e-11,9.458e-11,0.05,-782350179.940541,-0.06391000000000001,94.58,-1.2624999999999881e-10
0.58,-6.141e-11,-3.17e-11,8.775e-11,0.05,-814199641.752158,-0.06141,87.75,-2.06499999999998e-10
0.6,-7.217e-11,-3.011e-11,5.468e-11,0.05,-692808646.251905,-0.07217,54.68,-2.9149999999999987e-10
0.62,-7.307e-11,-3.073e-11,1.036e-10,0.05,-684275352.401806,-0.07307,103.6,-1.024999999999998e-10
0.64,-7.627e-11,-2.863e-11,1.2552e-10,0.05,-655565753.24505,-0.07627,125.52,-1.0499999999999912e-11
0.66,-7.349e-11,-2.499e-11,1.4412e-10,0.05,-680364675.46605,-0.07349,144.11999999999998,4.624999999999971e-11
0.68,-7.442e-11,-3.248e-11,1.1164e-10,0.05,-671862402.579952,-0.07442,111.64,-1.5125000000000131e-10
0.7,-7.954e-11,-3.116e-11,8.625e-11,0.05,-628614533.568016,-0.07954,86.25,-1.8875000000000082e-10
0.72,-8.197e-11,-3.416e-11,1.0268e-10,0.05,-609979260.705136,-0.08197,102.68,-1.8299999999999989e-10
0.74,-8.686e-11,-2.693e-11,1.2126e-10,0.05,-575638959.244762,-0.08685999999999999,121.26,6.150000000000025e-11
0.76,-7.951e-11,-3.276e-11,1.6015e-10,0.05,-628851716.765187,-0.07951000000000001,160.15,-1.975000000000006e-11
0.78,-8.765e-11,-2.994e-11,1.2595e-10,0.05,-570450656.018254,-0.08765,125.94999999999999,-1.337500000000003e-10
0.8,-8.486e-11,-3.946e-11,1.2233e-10,0.05,-589205750.648126,-0.08486,122.33000000000001,-2.0575000000000252e-10
0.82,-9.588e-11,-3.659e-11,8.681e-11,0.05,-521485189.820609,-0.09587999999999999,86.81,-2.1600000000000174e-10
0.84,-9.35e-11,-3.871e-11,1.3337e-10,0.05,-534759358.28877,-0.0935,133.37,-5.625000000000009e-11
0.86,-9.813e-11,-3.463e-11,1.4647e-10,0.05,-509528176.908183,-0.09813,146.47,4.7250000000000225e-11
0.88,-9.161e-11,-3.432e-11,1.7683e-10,0.05,-545791944.110905,-0.09161,176.83,1.3624999999999981e-10
0.9,-9.268e-11,-3.57e-11,1.3661e-10,0.05,-539490720.759603,-0.09268,136.61,-1.2450000000000014e-10
0.92,-9.659e-11,-4.086e-11,1.2153e-10,0.05,-517651930.841702,-0.09659,121.52999999999999,-2.072500000000005e-10
0.94,-1.0097e-10,-4.216e-11,1.1462e-10,0.05,-495196593.04744,-0.10097,114.62,-1.2275000000000022e-10
0.96,-1.015e-10,-3.621e-11,1.4578e-10,0.05,-492610837.438424,-0.10149999999999999,145.78,1.0875000000000006e-10
0.98,-9.662e-11,-3.996e-11,1.7522e-10,0.05,-517491202.649555,-0.09662,175.22,-4.999999999999879e-12
1.0,-1.017e-10,-3.74e-11,1.5854e-10,0.05,-491642084.562439,-0.1017,158.54,-9.025000000000018e-11
1.02,-1.0023e-10,-4.88e-11,1.4776e-10,0.05,-498852638.93046,-0.10023,147.76,-2.1299999999999957e-10
1.04,-1.1022e-10,-4.319e-11,1.1474e-10,0.05,-453638178.189076,-0.11022,114.74,-1.2550000000000003e-10
1.06,-1.0525e-10,-4.859e-11,1.5051e-10,0.05,-475059382.422803,-0.10525,150.51000000000002,1.549999999999979e-11
1.08,-1.096e-10,-4.025e-11,1.6141e-10,0.05,-456204379.562044,-0.1096,161.41,1.317500000000001e-10
1.1,-9.998e-11,-4.329e-11,1.998e-10,0.05,-500100020.004001,-0.09998,199.8,1.3174999999999967e-10
1.12,-1.0433e-10,-4.337e-11,1.5387e-10,0.05,-479248538.291958,-0.10433,153.87,-6.799999999999894e-11
1.14,-1.027e-10,-4.969e-11,1.4057e-10,0.05,-486854917.234664,-0.1027,140.57000000000002,-8.424999999999834e-11
1.16,-1.077e-10,-4.988e-11,1.2077e-10,0.05,-464252553.389044,-0.1077,120.76999999999998,-1.7649999999999955e-10
1.18,-1.0976e-10,-4.899e-11,1.6189e-10,0.05,-455539358.600583,-0.10976000000000001,161.89,6.800000000000018e-11
1.2,-1.0498e-10,-5.024e-11,1.8481e-10,0.05,-476281196.418365,-0.10497999999999999,184.81,1.3374999999999987e-10
1.22,-1.0441e-10,-4.537e-11,1.8311e-10,0.05,-478881333.205632,-0.10441,183.11,6.77499999999999e-11
1.24,-1.0227e-10,-5.7e-11,1.596e-10,0.05,-488901926.273589,-0.10227,159.6,-1.695000000000003e-10
1.26,-1.1119e-10,-5.39e-11,1.2894e-10,0.05,-449680726.684054,-0.11119000000000001,128.94,-8.500000000000002e-11
1.28,-1.0567e-10,-5.553e-11,1.5675e-10,0.05,-473171193.33775,-0.10567,156.75,6.975000000000051e-11
1.3,-1.084e-10,-5.028e-11,1.6632e-10,0.05,-461254612.546125,-0.1084,166.32,1.9424999999999982e-10
1.32,-9.79e-11,-5.455e-11,2.0259e-10,0.05,-510725229.826353,-0.0979,202.59,1.3024999999999963e-10
1.34,-1.0319e-10,-5.258e-11,1.6292e-10,0.05,-484543075.879446,-0.10318999999999999,162.92,-2.1749999999999847e-11
1.36,-9.877e-11,-6.201e-11,1.5555e-10,0.05,-506226587.02035,-0.09877,155.54999999999998,-6.750000000000375e-11
1.38,-1.0589e-10,-6.105e-11,1.2029e-10,0.05,-472188119.746907,-0.10589,120.29,-1.0350000000000321e-10
1.4,-1.0291e-10,-6.225e-11,1.6691e-10,0.05,-485861432.319502,-0.10291,166.91,3.974999999999958e-11
1.42,-1.043e-10,-6.087e-11,1.8346e-10,0.05,-479386385.426654,-0.1043,183.46,1.4374999999999963e-10
1.44,-9.716e-11,-5.844e-11,1.9792e-10,0.05,-514615067.929189,-0.09716000000000001,197.92,2.302499999999997e-10
1.46,-9.509e-11,-6.633e-11,1.6457e-10,0.05,-525817646.440215,-0.09509000000000001,164.57,-2.249999999999656e-12
1.48,-9.725e-11,-6.628e-11,1.4126e-10,0.05,-514138817.48072,-0.09725,141.26000000000002,-4.999999999999962e-11
1.5,-9.709e-11,-6.875e-11,1.4686e-10,0.05,-514986095.375425,-0.09709,146.85999999999999,-1.2250000000000242e-11
1.52,-9.774e-11,-6.139e-11,1.6842e-10,0.05,-511561285.041948,-0.09774000000000001,168.42,2.3574999999999973e-10
1.54,-8.766e-11,-6.784e-11,2.0238e-10,0.05,-570385580.652521,-0.08766,202.38,1.5849999999999981e-10
1.56,-9.14e-11,-6.594e-11,1.7057e-10,0.05,-547045951.859956,-0.09140000000000001,170.57000000000002,2.6249999999999987e-11
1.58,-8.661e-11,-7.596e-11,1.6076e-10,0.05,-577300542.66251,-0.08660999999999999,160.76,-9.299999999999999e-11
1.6,-9.512e-11,-7.354e-11,1.207e-10,0.05,-525651808.24222,-0.09512000000000001,120.7,-4.374999999999998e-11
1.62,-8.836e-11,-7.546e-11,1.6526e-10,0.05,-565866908.103214,-0.08836000000000001,165.26000000000002,1.3024999999999839e-10
1.64,-8.991e-11,-7.352e-11,1.7731e-10,0.05,-556111667.222778,-0.08991,177.31,1.5024999999999832e-10
1.66,-8.235e-11,-7.27e-11,2.065e-10,0.05,-607164541.590771,-0.08235,206.5,2.592499999999999e-10
1.68,-7.954e-11,-7.866e-11,1.6177e-10,0.05,-628614533.568016,-0.07954,161.77,0.0
1.7,-8.235e-11,-7.984e-11,1.3973e-10,0.05,-607164541.590771,-0.08235,139.73,-5.4500000000000174e-11
1.72,-8.172e-11,-8.102e-11,1.496e-10,0.05,-611845325.501713,-0.08172,149.6,-5.0749999999999644e-11
1.74,-8.438e-11,-7.646e-11,1.6539e-10,0.05,-592557478.075373,-0.08438,165.39000000000001,2.464999999999999e-10
1.76,-7.186e-11,-8.373e-11,1.9927e-10,0.05,-695797383.801837,-0.07186,199.27,2.1824999999999974e-10
1.78,-7.565e-11,-8.116e-11,1.7015e-10,0.05,-660938532.716457,-0.07565000000000001,170.15,3.199999999999989e-11
1.8,-7.058e-11,-9.159e-11,1.619e-10,0.05,-708415981.864551,-0.07058,161.9,-2.5749999999999834e-11
1.82,-7.668e-11,-8.951e-11,1.233e-10,0.05,-652060511.215441,-0.07668,123.3,-3.0999999999999996e-11
1.84,-7.182e-11,-9.231e-11,1.6388e-10,0.05,-696184906.711223,-0.07182000000000001,163.88,9.949999999999971e-11
1.86,-7.27e-11,-9.024e-11,1.7829e-10,0.05,-687757909.215956,-0.0727,178.29000000000002,1.6500000000000305e-10
1.88,-6.522e-11,-8.871e-11,2.0273e-10,0.05,-766636001.226618,-0.06522,202.73000000000002,2.6725000000000257e-10
1.9,-6.201e-11,-9.501e-11,1.6443e-10,0.05,-806321561.038542,-0.06201,164.43,3.375000000000001e-11
1.92,-6.387e-11,-9.742e-11,1.419e-10,0.05,-782840144.042586,-0.06387,141.9,-1.850000000000009e-11
1.94,-6.275e-11,-1.0002e-10,1.4458e-10,0.05,-796812749.003984,-0.06275,144.58,-1.3000000000000059e-11
1.96,-6.439e-11,-9.49e-11,1.661e-10,0.05,-776518092.871564,-0.06439,166.1,2.3200000000000003e-10
1.98,-5.347e-11,-1.021e-10,1.9829e-10,0.05,-935103796.521414,-0.05347,198.29,1.9999999999999972e-10
2.0,-5.639e-11,-9.929e-11,1.6792e-10,0.05,-886682035.821954,-0.056389999999999996,167.92,4.0749999999999885e-11
2.02,-5.184e-11,-1.1179e-10,1.6134e-10,0.05,-964506172.839506,-0.05184,161.34,-9.399999999999988e-11
2.04,-6.015e-11,-1.079e-10,1.2492e-10,0.05,-831255195.344971,-0.060149999999999995,124.91999999999999,-1.2499999999999905e-11
2.06,-5.234e-11,-1.1167e-10,1.664e-10,0.05,-955292319.449752,-0.05234,166.39999999999998,1.5249999999999984e-10
2.08,-5.405e-11,-1.0946e-10,1.7825e-10,0.05,-925069380.203515,-0.054049999999999994,178.25,2.0374999999999963e-10
2.1,-4.419e-11,-1.0929e-10,2.0575e-10,0.05,-1131477709.88912,-0.04419,205.75,3.1574999999999987e-10
2.12,-4.142e-11,-1.152e-10,1.6277e-10,0.05,-1207146306.1323,-0.04142,162.77,5.449999999999997e-11
2.14,-4.201e-11,-1.1873e-10,1.4314e-10,0.05,-1190192811.23542,-0.04201,143.14000000000001,-2.42500000000002e-11
2.16,-4.239e-11,-1.2165e-10,1.4056e-10,0.05,-1179523472.5171,-0.042390000000000004,140.56,-1.7999999999999938e-11
2.18,-4.273e-11,-1.1841e-10,1.6685e-10,0.05,-1170138076.293,-0.04273,166.85,3.134999999999998e-10
2.2,-2.985e-11,-1.2138e-10,2.0573e-10,0.05,-1675041876.0469,-0.029849999999999998,205.73,3.1299999999999975e-10
2.22,-3.021e-11,-1.2534e-10,1.6143e-10,0.05,-1655081098.97385,-0.030209999999999997,161.43,2.3750000000000047e-11
2.24,-2.89e-11,-1.3052e-10,1.4792e-10,0.05,-1730103806.22837,-0.0289,147.92,6.249999999998608e-12
2.26,-2.996e-11,-1.3428e-10,1.3074e-10,0.05,-1668891855.80774,-0.02996,130.74,-9e-11
2.28,-3.25e-11,-1.3275e-10,1.6557e-10,0.05,-1538461538.46154,-0.032499999999999994,165.57,1.664999999999999e-10
2.3,-2.33e-11,-1.3606e-10,1.9019e-10,0.05,-2145922746.78112,-0.0233,190.19,2.639999999999997e-10
2.32,-2.194e-11,-1.3417e-10,1.8259e-10,0.05,-2278942570.64722,-0.02194,182.59,1.9699999999999984e-10
2.34,-1.542e-11,-1.4713e-10,1.6473e-10,0.05,-3242542153.04799,-0.01542,164.73000000000002,-4.8750000000000064e-11
2.36,-2.389e-11,-1.4479e-10,1.2989e-10,0.05,-2092925910.42277,-0.02389,129.89000000000001,-3.2500000000000146e-12
2.38,-1.555e-11,-1.4974e-10,1.5829e-10,0.05,-3215434083.60129,-0.015550000000000001,158.29,1.8224999999999991e-10
2.4,-1.66e-11,-1.4572e-10,1.7013e-10,0.05,-3012048192.77108,-0.0166,170.13000000000002,2.9949999999999974e-10
2.42,-3.57e-12,-1.5216e-10,2.0726e-10,0.05,-14005602240.8964,-0.00357,207.26,2.689999999999998e-10
2.44,-5.84e-12,-1.5134e-10,1.663e-10,0.05,-8561643835.61644,-0.005840000000000001,166.3,1.367499999999999e-10
2.46,1.9e-12,-1.6091e-10,1.551e-10,0.05,26315789473.6842,0.0019,155.10000000000002,9.174999999999994e-11
2.48,-2.17e-12,-1.6255e-10,1.2424e-10,0.05,-23041474654.3779,-0.00217,124.24000000000001,-4.524999999999996e-11
2.5,9e-14,-1.6696e-10,1.6935e-10,0.05,555555555555.556,8.999999999999999e-05,169.35,1.7299999999999984e-10
2.52,4.75e-12,-1.6768e-10,1.8385e-10,0.05,10526315789.4737,0.00475,183.85,3.009999999999997e-10
2.54,1.213e-11,-1.6671e-10,1.9482e-10,0.05,4122011541.63232,0.01213,194.82,2.6549999999999976e-10
2.56,1.537e-11,-1.7715e-10,1.6267e-10,0.05,3253090435.91412,0.015370000000000002,162.67,-3.9999999999999345e-12
2.58,1.197e-11,-1.781e-10,1.3646e-10,0.05,4177109440.26733,0.01197,136.46,7.099999999999996e-11
2.6,1.821e-11,-1.8293e-10,1.5289e-10,0.05,2745744096.65019,0.01821,152.89000000000001,1.4124999999999985e-10
2.62,1.762e-11,-1.7862e-10,1.6677e-10,0.05,2837684449.48922,0.01762,166.77,3.2074999999999964e-10
2.64,3.104e-11,-1.8699e-10,2.017e-10,0.05,1610824742.26804,0.031039999999999998,201.70000000000002,2.837499999999998e-10
2.66,2.897e-11,-1.8773e-10,1.6516e-10,0.05,1725923369.00242,0.028970000000000003,165.16,1.112499999999999e-10
2.68,3.549e-11,-2.0007e-10,1.586e-10,0.05,1408847562.69372,0.03549,158.6,5.4249999999999994e-11
2.7,3.114e-11,-1.9935e-10,1.2302e-10,0.05,1605651894.66924,0.03114,123.02000000000001,6.799999999999997e-11
2.72,3.821e-11,-2.0514e-10,1.6698e-10,0.05,1308557969.11803,0.03821,166.98,2.0974999999999972e-10
2.74,3.953e-11,-2.0546e-10,1.8029e-10,0.05,1264862130.02783,0.039529999999999996,180.29,3.0600000000000846e-10
2.76,5.045e-11,-2.0668e-10,2.0037e-10,0.05,991080277.502478,0.050449999999999995,200.37,3.952500000000073e-10
2.78,5.534e-11,-2.1604e-10,1.6206e-10,0.05,903505601.734731,0.05534,162.06,1.2449999999999993e-10
2.8,5.543e-11,-2.1979e-10,1.4294e-10,0.05,902038607.25239,0.05543,142.94,9.47499999999997e-11
2.82,5.913e-11,-2.2498e-10,1.4795e-10,0.05,845594452.900389,0.059129999999999995,147.95,1.082499999999997e-10
2.84,5.976e-11,-2.2063e-10,1.6787e-10,0.05,836680053.547523,0.059759999999999994,167.87,4.084999999999998e-10
2.86,7.547e-11,-2.3155e-10,1.9825e-10,0.05,662514906.585398,0.07547,198.25,3.407499999999999e-10
2.88,7.339e-11,-2.325e-10,1.7082e-10,0.05,681291729.118408,0.07339000000000001,170.82000000000002,1.5700000000000018e-10
2.9,8.175e-11,-2.4592e-10,1.5843e-10,0.05,611620795.107034,0.08175,158.42999999999998,9.074999999999992e-11
2.92,7.702e-11,-2.4597e-10,1.2096e-10,0.05,649182030.641392,0.07701999999999999,120.96,7.974999999999985e-11
2.94,8.494e-11,-2.5333e-10,1.6361e-10,0.05,588650812.338121,0.08494,163.60999999999999,2.3824999999999967e-10
2.96,8.655e-11,-2.5313e-10,1.797e-10,0.05,577700751.010976,0.08655,179.70000000000002,3.539999999999994e-10
2.98,9.91e-11,-2.5552e-10,2.0055e-10,0.05,504540867.810293,0.0991,200.54999999999998,4.5349999999999973e-10
3.0,1.0469e-10,-2.6471e-10,1.5902e-10,0.05,477600534.912599,0.10469,159.02,1.9300000000000006e-10
3.02,1.0682e-10,-2.7173e-10,1.3826e-10,0.05,468077139.112526,0.10682,138.26,1.2299999999999968e-10
3.04,1.0961e-10,-2.7631e-10,1.413e-10,0.05,456162758.872366,0.10961,141.29999999999998,1.3399999999999974e-10
3.06,1.1218e-10,-2.7631e-10,1.6234e-10,0.05,445712248.17258,0.11217999999999999,162.34,4.739999999999998e-10
3.08,1.2857e-10,-2.853e-10,1.9577e-10,0.05,388893209.924555,0.12857,195.77,4.1449999999999976e-10
3.1,1.2876e-10,-2.8654e-10,1.6824e-10,0.05,388319353.836595,0.12876,168.24,2.117499999999998e-10
3.12,1.3704e-10,-3.0249e-10,1.5859e-10,0.05,364856976.065382,0.13704,158.59,1.0799999999999963e-10
3.14,1.3308e-10,-3.0353e-10,1.2057e-10,0.05,375713856.327021,0.13308,120.57000000000001,1.7249999999999997e-10
3.16,1.4394e-10,-3.1016e-10,1.6243e-10,0.05,347366958.454912,0.14393999999999998,162.43,3.29e-10
3.18,1.4624e-10,-3.1161e-10,1.7862e-10,0.05,341903719.912473,0.14624,178.62,4.742499999999997e-10
3.2,1.6291e-10,-3.1558e-10,1.9967e-10,0.05,306917930.145479,0.16291,199.67,5.49499999999999e-10
3.22,1.6822e-10,-3.243e-10,1.6058e-10,0.05,297229818.095351,0.16821999999999998,160.58,1.9399999999999912e-10
3.24,1.7067e-10,-3.3255e-10,1.4154e-10,0.05,292963028.065858,0.17067,141.54000000000002,1.7975000000000364e-10
3.26,1.7541e-10,-3.3975e-10,1.3586e-10,0.05,285046462.573399,0.17540999999999998,135.86,1.7975000000000282e-10
3.28,1.7786e-10,-3.4037e-10,1.6373e-10,0.05,281119982.008321,0.17786,163.73000000000002,3.839999999999995e-10
3.3,1.9077e-10,-3.5027e-10,1.883e-10,0.05,262095717.355978,0.19077,188.3,4.7275e-10
3.32,1.9677e-10,-3.5352e-10,1.7073e-10,0.05,254103775.982111,0.19677,170.73,3.5449999999999996e-10
3.34,2.0495e-10,-3.6859e-10,1.6061e-10,0.05,243961941.937058,0.20495,160.61,1.709999999999995e-10
3.36,2.0361e-10,-3.7052e-10,1.239e-10,0.05,245567506.507539,0.20361,123.9,3.1574999999999987e-10
3.38,2.1758e-10,-3.8069e-10,1.6141e-10,0.05,229800533.137237,0.21758000000000002,161.41,3.872499999999999e-10
3.4,2.191e-10,-3.8191e-10,1.687e-10,0.05,228206298.493838,0.2191,168.7,4.4274999999999994e-10
3.42,2.3529e-10,-3.8669e-10,1.8374e-10,0.05,212503718.815079,0.23529000000000003,183.74,6.334999999999987e-10
3.44,2.4444e-10,-4.0459e-10,1.5742e-10,0.05,204549173.621339,0.24444,157.42000000000002,2.7499999999999915e-10
3.46,2.4629e-10,-4.0698e-10,1.3475e-10,0.05,203012708.595558,0.24628999999999998,134.75,2.265000000000004e-10
3.48,2.535e-10,-4.1499e-10,1.4372e-10,0.05,197238658.77712,0.2535,143.72,2.9924999999999935e-10
3.5,2.5826e-10,-4.1685e-10,1.5937e-10,0.05,193603345.46581,0.25826,159.36999999999998,6.004999999999993e-10
3.52,2.7752e-10,-4.2774e-10,1.9278e-10,0.05,180167195.157106,0.27752,192.78,5.120000000000007e-10
3.54,2.7874e-10,-4.328e-10,1.6156e-10,0.05,179378632.417306,0.27874,161.56,3.104999999999997e-10
3.56,2.8994e-10,-4.5005e-10,1.4961e-10,0.05,172449472.304615,0.28994,149.60999999999999,2.679999999999995e-10
3.58,2.8946e-10,-4.5375e-10,1.1395e-10,0.05,172735438.402543,0.28946,113.95,2.4550000000000044e-10
3.6,2.9976e-10,-4.6355e-10,1.5568e-10,0.05,166800106.752068,0.29976,155.68,4.2899999999999924e-10
3.62,3.0662e-10,-4.6993e-10,1.7299e-10,0.05,163068293.001109,0.30662,172.98999999999998,5.477499999999991e-10
3.64,3.2167e-10,-4.7378e-10,1.8849e-10,0.05,155438803.742966,0.32167,188.49,6.562499999999997e-10
3.66,3.3287e-10,-4.8928e-10,1.5384e-10,0.05,150208790.218404,0.33287,153.84,3.85749999999999e-10
3.68,3.371e-10,-4.9716e-10,1.3267e-10,0.05,148323939.483833,0.3371,132.67,3.037500000000003e-10
3.7,3.4502e-10,-5.0783e-10,1.3736e-10,0.05,144919135.122602,0.34502,137.36,3.4325000000000044e-10
3.72,3.5083e-10,-5.1019e-10,1.5827e-10,0.05,142519168.828207,0.35083000000000003,158.27,6.669999999999986e-10
3.74,3.717e-10,-5.2338e-10,1.888e-10,0.05,134517083.669626,0.37170000000000003,188.8,6.487499999999978e-10
3.76,3.7678e-10,-5.2895e-10,1.5815e-10,0.05,132703434.364881,0.37678,158.15,4.762499999999991e-10
3.78,3.9075e-10,-5.4864e-10,1.5211e-10,0.05,127959053.103007,0.39075000000000004,152.11,3.442499999999999e-10
3.8,3.9055e-10,-5.5268e-10,1.1517e-10,0.05,128024580.719498,0.39055,115.17,4.0049999999999753e-10
